!Keysight Technologies,N5222B,MY58421742,A.17.00.05
!Date: Friday, September 20, 2024 13:39:56
!Correction: S11(C  2-Port  ) 
!S21(C  2-Port  ) 
!S12(C  2-Port  ) 
!S22(C  2-Port  ) 
!S2P File: Measurements: S11, S21, S12, S22:
# Hz S  dB   R 50
1000000000 0.007294232 0.2062372 -88.246048 -96.15464 -76.036827 69.240509 -0.089581676 -41.850956
1100000000 0.0068585048 0.37564468 -63.820229 163.18552 -70.785126 -6.2698512 -0.087602332 -45.965794
1200000000 0.0026183529 0.48025879 -79.343437 -76.878708 -72.138138 -101.95309 -0.087079115 -50.013824
1300000000 -0.0053080539 0.57639951 -70.512871 -87.387733 -71.078728 -4.2324729 -0.095917843 -53.95887
1400000000 -0.0012789551 0.57018024 -66.75618 -150.99556 -73.129379 50.575066 -0.10632458 -58.098053
1500000000 0.0030534705 0.55057234 -82.041771 40.539642 -80.916412 77.049637 -0.11221371 -61.934898
1600000000 0.0047867829 0.36750573 -75.756111 -48.795864 -81.099152 138.9735 -0.12584916 -65.915428
1700000000 0.0193341 0.32011256 -70.322159 132.87408 -70.011665 -123.11331 -0.11908688 -69.908241
1800000000 0.0093074152 0.55880141 -67.475647 -16.203428 -86.803101 -7.1287479 -0.14271349 -73.803047
1900000000 -0.0097074658 0.76260436 -84.612022 175.90359 -81.563797 25.958422 -0.14818773 -77.685081
2000000000 -0.013923319 0.8448143 -79.611771 37.807312 -81.575356 -6.3245816 -0.17017415 -81.53746
2100000000 -0.019121544 0.75023264 -76.467506 72.750122 -87.587387 9.451437 -0.19251381 -85.418495
2200000000 -0.018348888 0.59200031 -76.934105 147.84795 -71.163254 -103.41693 -0.19709952 -89.217606
2300000000 -0.017124409 0.50476986 -76.518929 53.27816 -75.755241 -173.49225 -0.21875788 -93.014175
2400000000 -0.0067264982 0.59966642 -78.224869 38.276253 -93.185814 -81.579727 -0.24039292 -96.776222
2500000000 -0.026898662 0.85692644 -74.552299 170.5013 -69.353645 56.120419 -0.2513836 -100.39211
2600000000 -0.02262154 1.0013247 -74.30098 119.66993 -79.106262 -27.681751 -0.25264496 -104.12039
2700000000 -0.046368461 0.90107477 -68.212334 55.456703 -83.168777 -171.25015 -0.25889182 -107.75407
2800000000 -0.044301223 0.69609046 -80.775009 -62.649544 -86.57148 135.75777 -0.27061954 -111.39969
2900000000 -0.048683006 0.41690922 -83.451996 -130.29964 -71.796844 -21.214991 -0.28397384 -114.9935
3000000000 -0.041462373 0.44940516 -78.184311 146.60823 -78.330643 -8.6609297 -0.29918599 -118.54823
3100000000 -0.038533971 0.67804992 -71.495216 -60.437157 -86.698135 16.093689 -0.30023661 -122.05159
3200000000 -0.036917128 0.96989286 -71.252815 110.5285 -72.056992 81.965149 -0.31392118 -125.5478
3300000000 -0.041378483 1.17495 -72.647865 -92.20797 -97.012993 -14.020183 -0.33414063 -129.0043
3400000000 -0.058875754 1.1370314 -74.896393 155.25716 -82.702042 114.82352 -0.35061008 -132.49742
3500000000 -0.071431808 1.0053596 -73.880936 -141.93169 -70.707626 -1.2767802 -0.35723618 -135.95726
3600000000 -0.068468668 0.88357079 -73.664192 -59.975899 -72.935188 106.76849 -0.37426844 -139.38832
3700000000 -0.052618783 1.0523802 -77.258781 0.37810013 -71.030479 99.368454 -0.39565861 -142.75319
3800000000 -0.050981235 1.2882632 -72.654732 -175.569 -78.97242 -113.18064 -0.40023866 -146.10616
3900000000 -0.055953681 1.4234788 -81.048698 23.572664 -70.838844 138.45 -0.41452104 -149.45961
4000000000 -0.075033754 1.3760825 -73.468636 -18.249073 -69.093369 101.78064 -0.42588025 -152.85797
4100000000 -0.10509574 1.1480964 -82.416992 -159.53705 -78.906624 -176.98657 -0.45738176 -156.12067
4200000000 -0.11942185 0.90695971 -82.758064 154.39633 -79.872253 -5.2633681 -0.46921253 -159.54636
4300000000 -0.13022228 0.84122723 -70.566025 -131.09268 -74.03038 109.91288 -0.49042746 -162.85361
4400000000 -0.1125277 0.90877086 -73.769371 63.733959 -71.154213 22.931345 -0.51137406 -166.12779
4500000000 -0.097252361 1.1079203 -79.874817 125.1717 -85.16922 -36.154472 -0.51620787 -169.37573
4600000000 -0.10874536 1.2091745 -82.592911 -68.156883 -74.282234 79.912125 -0.53991538 -172.7137
4700000000 -0.14917833 1.1544626 -80.781128 -175.1199 -80.524803 11.42895 -0.54442364 -175.9269
4800000000 -0.18340574 1.1903125 -73.82428 58.874092 -75.224396 120.80438 -0.55915773 -179.17529
4900000000 -0.22440848 1.1573706 -72.44519 -150.74533 -84.553986 -51.692558 -0.57201505 177.61522
5000000000 -0.19834818 1.2420002 -81.314537 -8.7466621 -77.508713 134.13278 -0.5800795 174.4525
5100000000 -0.16808912 1.2876219 -79.221458 26.512991 -74.994896 65.867363 -0.5893836 171.32935
5200000000 -0.13924985 1.3722674 -74.555328 -175.60506 -70.035759 93.356239 -0.6053282 168.12631
5300000000 -0.15260056 1.4190528 -75.122833 -107.10573 -72.956886 118.33298 -0.6250118 164.89049
5400000000 -0.20637861 1.5922904 -69.986443 122.10306 -71.071571 -133.78888 -0.63798368 161.70625
5500000000 -0.24924773 1.8240749 -72.303055 3.9587913 -76.073265 87.592537 -0.66302097 158.50583
5600000000 -0.25900063 1.972577 -78.861008 -84.557838 -77.786247 51.494064 -0.66950196 155.36079
5700000000 -0.23287483 2.0341558 -70.085396 100.09003 -70.98056 -146.97679 -0.68677992 152.3002
5800000000 -0.18674643 1.9482816 -69.883179 -98.348457 -70.811562 117.64985 -0.69634241 149.13664
5900000000 -0.17609853 1.8541746 -69.718674 155.23337 -75.780495 -9.674058 -0.70932764 146.0047
6000000000 -0.20744802 1.9950182 -81.073059 74.617874 -75.94339 118.1205 -0.71953815 142.83795
6100000000 -0.25131533 2.3398817 -82.818474 -45.812023 -71.798271 -36.885559 -0.73838311 139.7424
6200000000 -0.28799331 2.7008843 -76.624466 -67.041145 -73.261864 5.3684077 -0.74728674 136.71622
6300000000 -0.2758545 2.7852428 -74.50209 30.186247 -85.678749 -88.165939 -0.76434875 133.54395
6400000000 -0.2401571 2.5114348 -76.1632 64.052917 -73.415352 -110.5662 -0.77034235 130.38635
6500000000 -0.22871776 2.0296993 -72.852509 -95.741577 -71.574104 -137.62479 -0.78261489 127.25834
6600000000 -0.26232603 1.8763776 -69.472809 44.744171 -78.523476 147.47105 -0.80163187 124.10186
6700000000 -0.31970346 2.1789591 -76.048088 10.482153 -71.876862 -31.340958 -0.80487996 120.92597
6800000000 -0.37228927 2.8337815 -78.85247 -8.869462 -73.061424 109.76772 -0.80904359 117.84493
6900000000 -0.38043797 3.2144229 -83.639549 104.23699 -74.377739 -26.06579 -0.81615812 114.78188
7000000000 -0.36357489 3.0832324 -72.190529 7.4807172 -79.046562 -121.30789 -0.82602984 111.58858
7100000000 -0.34987602 2.4707887 -83.825584 -137.84656 -85.271446 -9.0867767 -0.83853346 108.41364
7200000000 -0.36822519 1.8641138 -78.312981 -84.568634 -86.471764 -25.03261 -0.85456651 105.30806
7300000000 -0.41383874 1.9103643 -81.308632 172.93459 -86.338959 -166.97331 -0.8543784 102.20414
7400000000 -0.45019087 2.654655 -76.577034 -116.29075 -84.3769 93.183601 -0.8608098 99.207382
7500000000 -0.42737469 3.6002197 -72.620415 21.017246 -77.02018 -9.9505968 -0.8761608 96.145737
7600000000 -0.39650878 4.0276003 -71.758499 -101.84658 -78.792519 -1.758364 -0.8971647 92.981911
7700000000 -0.36694983 3.6982977 -84.719711 -47.177647 -80.150726 -71.436317 -0.90575695 89.870407
7800000000 -0.38651156 2.881582 -80.767815 -170.32362 -69.39212 80.427048 -0.90986079 86.769539
7900000000 -0.47772792 2.307719 -78.934387 19.952721 -71.355232 -84.706978 -0.90637696 83.769821
8000000000 -0.56904411 2.6226172 -78.980583 -59.168816 -77.130737 -32.958675 -0.91984087 80.726967
8100000000 -0.59615201 3.558392 -71.11573 91.567169 -68.861305 51.992672 -0.91397995 77.684219
8200000000 -0.54987901 4.4597597 -73.402695 149.44083 -68.708054 129.44974 -0.91520125 74.616135
8300000000 -0.47212514 4.6565032 -70.874779 143.35649 -70.90345 -23.248785 -0.92268342 71.504776
8400000000 -0.46752807 4.1138802 -74.962639 -146.13005 -73.3153 -37.153168 -0.92314118 68.521034
8500000000 -0.53861409 3.5241752 -75.61969 -16.764174 -70.928436 97.544044 -0.92002136 65.498306
8600000000 -0.6450451 3.3360152 -68.428093 -90.962776 -81.043571 -134.51183 -0.92006803 62.515949
8700000000 -0.71440959 3.9351666 -76.570419 -41.810383 -79.698349 86.402718 -0.91134048 59.556599
8800000000 -0.67287397 4.7120948 -82.146637 60.909184 -79.494133 125.24306 -0.91179037 56.527878
8900000000 -0.54223228 5.1938214 -76.878441 174.05534 -71.397408 -65.371162 -0.9166348 53.506947
9000000000 -0.43688798 4.9616003 -76.832069 135.84013 -72.452103 -89.075462 -0.91262013 50.51725
9100000000 -0.41345635 4.5120335 -67.180962 -92.161804 -77.507309 111.36472 -0.91174316 47.552784
9200000000 -0.51113355 4.5210381 -68.970718 -91.058258 -69.735153 150.19141 -0.90558922 44.650124
9300000000 -0.64137596 5.1464624 -75.241791 -55.806614 -67.95665 -83.700638 -0.90977621 41.707577
9400000000 -0.71207345 6.1328745 -73.017578 -114.62902 -70.249657 -147.44502 -0.9066509 38.721172
9500000000 -0.68534231 6.5923419 -66.62516 -109.571 -73.300224 -31.326653 -0.9112345 35.794121
9600000000 -0.54873925 6.2003384 -70.740791 157.61189 -76.64093 78.37178 -0.92601633 32.882259
9700000000 -0.47187436 5.3911343 -75.644562 44.740471 -77.236267 145.40796 -0.91690624 30.000404
9800000000 -0.47687268 5.1542206 -71.292473 117.10227 -67.052887 81.518654 -0.90937626 27.207808
9900000000 -0.57222557 5.7641072 -70.838943 124.53946 -70.741173 -20.34103 -0.90801978 24.354475
10000000000 -0.66020232 7.0158973 -78.381836 -91.547005 -78.050369 122.61118 -0.90762925 21.478661
10100000000 -0.70009297 7.9753714 -66.432266 92.666351 -83.517044 153.6217 -0.9042846 18.559639
10200000000 -0.64915168 7.9807825 -73.928284 112.95418 -69.231667 -25.825157 -0.89478797 15.759945
10300000000 -0.5779798 6.9582744 -82.506851 -44.751465 -70.951126 -57.053711 -0.88054746 12.981293
10400000000 -0.55583227 5.98981 -79.18116 172.44901 -71.374809 32.721592 -0.86867172 10.258232
10500000000 -0.58528668 6.0048118 -71.961609 -122.03037 -75.925499 -90.822571 -0.86446697 7.5340395
10600000000 -0.64211327 7.2280879 -74.463715 176.29002 -73.51136 -59.092529 -0.85560066 4.8839216
10700000000 -0.6961385 8.7962914 -69.401489 -138.4841 -75.226555 -55.392166 -0.86832958 2.1233504
10800000000 -0.71129459 9.7458096 -79.405846 0.10353543 -71.759453 26.679552 -0.86693025 -0.59111142
10900000000 -0.68958914 9.3910313 -70.80835 25.342604 -73.658142 165.50906 -0.85254407 -3.1439857
11000000000 -0.68461674 8.1284618 -75.767723 119.02646 -70.689812 133.53886 -0.83288401 -5.7389617
11100000000 -0.66925919 6.9941063 -71.378166 -17.142902 -80.007591 110.28745 -0.82120311 -8.3142424
11200000000 -0.66785544 7.0131783 -75.413551 -166.55028 -73.859512 135.37549 -0.81241524 -10.921062
11300000000 -0.62905163 8.1811857 -68.285477 -108.17598 -74.45723 -11.657886 -0.81856972 -13.488784
11400000000 -0.57744312 9.5165787 -69.110374 -67.466499 -83.265877 151.56627 -0.81186032 -16.068766
11500000000 -0.56110817 10.213215 -70.900627 -142.51805 -70.690712 86.738281 -0.80618566 -18.648985
11600000000 -0.54088366 9.867403 -83.075256 178.61984 -83.023003 -13.736529 -0.79656905 -21.134012
11700000000 -0.55284244 8.9160089 -74.823494 -140.93669 -72.615211 -27.683058 -0.78286719 -23.627661
11800000000 -0.56494391 8.1114912 -75.953522 -42.516727 -77.4617 -122.48637 -0.78529918 -26.052608
11900000000 -0.54554617 8.1595068 -70.806801 93.455704 -69.411713 -2.2324774 -0.79090965 -28.565056
12000000000 -0.51368481 8.9870386 -74.364746 -45.587971 -73.155785 -40.281944 -0.78684282 -31.078861
12100000000 -0.45179883 9.9342737 -78.161713 161.33186 -75.611771 -38.81028 -0.77619326 -33.50716
12200000000 -0.4280774 10.423346 -75.587547 -117.7002 -67.350136 -88.62822 -0.76838654 -35.949596
12300000000 -0.42372677 10.081857 -74.379395 -91.535706 -75.659019 -161.36604 -0.76410055 -38.320244
12400000000 -0.46749231 9.4827156 -72.701607 99.192841 -71.497368 38.174797 -0.76144445 -40.707043
12500000000 -0.48162454 8.9987612 -73.879913 110.72435 -77.695641 165.58231 -0.76081896 -43.131516
12600000000 -0.49193645 9.1296215 -87.727425 4.0095506 -71.689606 -23.858767 -0.76983178 -45.501202
12700000000 -0.46792015 9.8085489 -82.264526 43.127258 -74.017929 89.351326 -0.76091397 -47.810562
12800000000 -0.41950905 10.615128 -80.400299 -24.184978 -70.304573 23.017849 -0.76316053 -50.068546
12900000000 -0.36131167 10.908868 -71.108803 7.1654797 -68.271378 105.18329 -0.75636727 -52.344601
13000000000 -0.32835865 10.71808 -83.901451 -61.930439 -67.120682 -96.639587 -0.74652123 -54.647209
13100000000 -0.36348426 10.286536 -75.298935 69.182724 -79.631271 -15.475378 -0.75175279 -56.837734
13200000000 -0.43763688 10.085054 -65.784599 -52.829399 -77.564896 150.04706 -0.74161834 -59.099995
13300000000 -0.4920069 10.353565 -71.586624 15.429225 -69.85936 111.05119 -0.74178815 -61.307793
13400000000 -0.47445378 10.892646 -69.536934 -74.889748 -75.628548 128.25233 -0.72554213 -63.512802
13500000000 -0.40468717 11.438472 -72.030014 137.959 -68.920494 -38.760548 -0.72129488 -65.663124
13600000000 -0.29997864 11.584821 -72.891602 -82.085258 -70.554573 117.53739 -0.70239896 -67.78981
13700000000 -0.26340103 11.19506 -81.523972 23.762802 -79.849159 13.613606 -0.7178005 -69.962692
13800000000 -0.33662048 10.725033 -71.705887 -103.853 -91.777885 -58.291473 -0.71587914 -72.033768
13900000000 -0.45092225 10.737788 -68.70903 67.387657 -81.167999 -86.485107 -0.72288686 -74.080948
14000000000 -0.52518582 11.256874 -72.918365 -94.003044 -79.570732 176.39557 -0.705549 -76.288971
14100000000 -0.49143898 11.974704 -68.129745 -152.02524 -69.647217 -62.253963 -0.71317399 -78.373329
14200000000 -0.36163041 12.376277 -73.943367 77.401917 -68.604279 119.40073 -0.70231926 -80.457085
14300000000 -0.2179772 12.135174 -71.023994 82.440178 -72.359024 29.319712 -0.71795106 -82.563812
14400000000 -0.20001163 11.620874 -75.592751 97.022339 -77.085686 106.28151 -0.71284145 -84.596046
14500000000 -0.28946373 11.36668 -74.974731 127.77863 -74.027451 -40.547409 -0.72081107 -86.67028
14600000000 -0.43946791 11.791264 -76.824112 -147.8694 -71.043808 156.25739 -0.72230417 -88.782166
14700000000 -0.48178303 12.488683 -64.560577 -92.996399 -88.5355 13.08007 -0.72886211 -90.828659
14800000000 -0.38975909 12.988948 -74.010124 -67.436142 -68.527885 -15.396158 -0.73289889 -92.810234
14900000000 -0.2382526 12.834646 -64.058228 -60.183968 -70.808342 -100.55637 -0.73784375 -94.920639
15000000000 -0.11039209 12.249792 -73.184227 -59.512421 -72.253708 2.9057715 -0.76540607 -96.888748
15100000000 -0.12833259 11.821426 -73.052544 87.800476 -64.336258 -91.820351 -0.77034515 -98.97197
15200000000 -0.24533243 12.135066 -74.96003 -104.97403 -75.765648 -158.90985 -0.77119184 -100.93351
15300000000 -0.33451051 12.975709 -69.403946 19.559828 -70.128296 -84.099693 -0.7632907 -102.93389
15400000000 -0.31654656 13.752173 -74.647331 -1.2396121 -71.956764 -172.97665 -0.76351511 -104.99092
15500000000 -0.20758243 13.793591 -75.624481 -119.37467 -73.487534 -79.847672 -0.77323437 -106.95425
15600000000 -0.091650754 13.158689 -70.444283 47.485107 -75.458191 -151.99275 -0.78219831 -109.04813
15700000000 -0.050689209 12.318642 -74.457062 133.9095 -94.527412 144.71931 -0.80124551 -110.98713
15800000000 -0.10115506 12.171426 -79.483177 23.306553 -74.070229 -159.13802 -0.80612922 -113.0022
15900000000 -0.175219 12.879075 -75.301224 -141.35704 -69.039986 45.267757 -0.81365013 -114.99099
16000000000 -0.19005509 13.945971 -73.078865 -132.09503 -70.539314 -56.168846 -0.80304551 -116.92598
16100000000 -0.11923853 14.623355 -69.383659 -15.546743 -67.629761 -101.83067 -0.81096572 -118.88436
16200000000 -0.032891996 14.359321 -73.536911 -66.478134 -73.117661 148.43562 -0.82325798 -120.84041
16300000000 0.0085934 13.416824 -78.108559 23.790819 -78.628151 26.317856 -0.83945793 -122.84129
16400000000 -0.00012451329 12.655934 -74.06073 3.4246941 -76.555603 104.2297 -0.83120513 -124.78738
16500000000 -0.051226396 12.679211 -73.884956 -94.733727 -78.777084 -74.146591 -0.82907909 -126.73349
16600000000 -0.050830901 13.39642 -82.518639 78.375336 -81.887177 -83.666382 -0.8295278 -128.72374
16700000000 0.0050603463 14.32762 -68.634552 -57.31287 -72.131989 -77.93293 -0.84435093 -130.75253
16800000000 0.07523191 14.703574 -67.64122 159.37135 -72.151604 29.074726 -0.85728526 -132.68698
16900000000 0.088806055 14.264478 -74.48896 -54.737797 -78.244812 -19.773687 -0.86906505 -134.6496
17000000000 0.045718018 13.429089 -78.229271 19.036285 -70.955635 -128.72775 -0.88350552 -136.65135
17100000000 -0.011652656 12.680301 -69.13279 168.82118 -76.274857 172.83345 -0.88955259 -138.59183
17200000000 -0.041001651 12.651584 -77.801559 136.29832 -74.137749 114.47504 -0.90271646 -140.60092
17300000000 0.011303658 13.222208 -82.764488 163.57523 -73.864349 127.71439 -0.91237831 -142.58037
17400000000 0.10935336 13.941276 -69.924271 70.85482 -74.639313 -154.14859 -0.92933577 -144.64056
17500000000 0.1628961 14.158329 -75.100365 -152.42039 -79.948364 3.6791263 -0.9639709 -146.65663
17600000000 0.14284363 13.973544 -71.947884 -159.64377 -71.641457 -110.32679 -0.96958059 -148.77347
17700000000 0.052231099 13.366549 -74.678627 -27.149055 -73.047966 -142.66466 -0.97914475 -150.79692
17800000000 -0.018878451 12.792276 -73.797462 136.36673 -72.987114 141.5128 -0.99792242 -152.84201
17900000000 -0.0087476475 12.715271 -78.556206 91.692909 -80.365028 108.81278 -1.0161343 -154.94293
18000000000 0.066861771 13.086829 -70.255402 124.92329 -70.666122 -69.206093 -1.0519705 -157.01396
18100000000 0.15325528 13.506621 -80.800438 70.010735 -72.712463 130.75125 -1.0853822 -159.11624
18200000000 0.16722083 13.834046 -70.02903 -102.31264 -81.728477 152.1794 -1.1073295 -161.2301
18300000000 0.10385919 13.707296 -75.765671 147.97926 -73.634056 169.00478 -1.1087638 -163.36517
18400000000 0.0045825043 13.244945 -75.093834 -139.59721 -84.650757 -117.33168 -1.1224467 -165.4449
18500000000 -0.020621756 12.734324 -74.748917 -174.7486 -67.188255 -31.708454 -1.1414325 -167.57755
18600000000 0.029218901 12.693774 -77.897835 -73.080765 -83.459831 112.54231 -1.1654818 -169.74327
18700000000 0.11609086 12.994619 -72.097336 85.88781 -68.625038 -142.37822 -1.1985281 -171.85359
18800000000 0.18986501 13.578401 -82.985359 20.334827 -74.234024 13.566793 -1.1929508 -174.10281
18900000000 0.17521547 13.866926 -70.157608 152.89893 -71.036591 61.586025 -1.2073522 -176.2429
19000000000 0.092069939 13.837432 -78.090477 -76.754028 -79.897423 -35.960606 -1.2188399 -178.46722
19100000000 0.0056053526 13.463156 -72.154076 141.065 -82.252731 65.719162 -1.229306 179.37181
19200000000 0.00183648 13.00976 -71.119041 -23.956329 -77.464745 -106.75484 -1.255618 177.15195
19300000000 0.040863331 12.977983 -74.532875 148.59914 -74.185143 -37.185825 -1.2751203 174.93869
19400000000 0.13543652 13.330549 -78.663979 -179.61891 -81.120537 93.482613 -1.291679 172.64302
19500000000 0.18535891 13.870413 -70.378441 -32.862259 -74.335609 -96.773033 -1.3062938 170.32675
19600000000 0.15625036 14.295368 -72.403534 47.195797 -71.259933 -79.636673 -1.321556 168.04959
19700000000 0.075928949 14.261954 -72.732201 41.861713 -75.514908 -82.007538 -1.3396832 165.79813
19800000000 0.020167453 13.823236 -72.937447 17.299829 -77.939522 174.08258 -1.3815116 163.42274
19900000000 0.0076632476 13.388874 -69.586357 -62.975151 -76.990273 -104.16451 -1.4248291 161.01985
20000000000 0.05277738 13.374892 -68.683365 101.54645 -88.658112 -177.72403 -1.4712012 158.60216
20100000000 0.13934697 13.753339 -80.590874 145.77043 -73.243713 -5.3622069 -1.5035542 156.2549
20200000000 0.17001462 14.299674 -76.4692 139.08727 -78.978874 121.74603 -1.5284562 153.81129
20300000000 0.14280005 14.64278 -74.580635 -106.6087 -70.572083 150.34215 -1.5691408 151.51459
20400000000 0.085136145 14.574327 -73.500404 -29.391531 -66.273438 88.915779 -1.613168 149.10497
20500000000 0.020965613 14.035417 -75.965752 52.233536 -73.207237 27.251997 -1.6430973 146.73807
20600000000 0.018555747 13.643303 -72.257385 48.886074 -70.558548 84.644852 -1.6580901 144.28525
20700000000 0.048703689 13.611606 -72.996178 -104.78834 -74.672844 -76.097389 -1.6751674 141.73015
20800000000 0.09978205 13.93751 -72.78157 -72.127846 -68.889702 52.723938 -1.6777664 139.15161
20900000000 0.12509619 14.332828 -75.955772 17.09573 -75.749619 106.33814 -1.6846068 136.53104
