!Keysight Technologies,N5222B,MY58421742,A.17.00.05
!Date: Friday, September 20, 2024 13:21:34
!Correction: S11(C  2-Port  ) 
!S21(C  2-Port  ) 
!S12(C  2-Port  ) 
!S22(C  2-Port  ) 
!S2P File: Measurements: S11, S21, S12, S22:
# Hz S  dB   R 50
1000000000 -30.568144 62.976162 -0.08190579 -9.1027718 -0.084204257 -9.048254 -30.73628 63.094425
1100000000 -29.81023 63.436897 -0.083849557 -10.007079 -0.080680139 -10.000804 -29.934464 63.271172
1200000000 -29.468153 63.381458 -0.10525857 -10.877099 -0.092655517 -10.870389 -29.329517 61.597591
1300000000 -29.024355 63.736103 -0.095505282 -11.752324 -0.091110662 -11.788419 -29.066103 61.476238
1400000000 -28.727943 63.835838 -0.094326057 -12.643337 -0.10814343 -12.662293 -28.432867 60.693665
1500000000 -28.083277 61.839516 -0.10449404 -13.459068 -0.10560229 -13.544615 -27.935831 60.153374
1600000000 -27.340645 58.7323 -0.11050813 -14.419983 -0.11663506 -14.369639 -27.189896 59.259048
1700000000 -26.686283 58.45929 -0.10632405 -15.264107 -0.11078005 -15.268595 -26.669151 57.968239
1800000000 -26.24909 58.921783 -0.12104736 -16.159864 -0.11568987 -16.138638 -26.266222 57.820885
1900000000 -26.075905 59.337994 -0.12798625 -17.046583 -0.12515187 -17.01704 -25.967047 57.353661
2000000000 -26.006813 58.696312 -0.12600905 -17.919758 -0.12610498 -17.878639 -25.744282 57.34605
2100000000 -25.727055 57.013599 -0.13972539 -18.7689 -0.13087291 -18.753176 -25.430027 56.987144
2200000000 -25.36911 55.071056 -0.14129753 -19.646152 -0.13484253 -19.659241 -25.148481 56.066208
2300000000 -24.829409 53.98814 -0.14746621 -20.51144 -0.13839699 -20.538809 -24.816481 55.714981
2400000000 -24.578732 53.93536 -0.15077293 -21.40427 -0.14881988 -21.353609 -24.539246 54.877434
2500000000 -24.413378 54.058865 -0.15604483 -22.249342 -0.15024981 -22.282469 -24.23484 53.739353
2600000000 -24.216446 53.512547 -0.15332079 -23.139608 -0.17175896 -23.099943 -24.082115 52.4548
2700000000 -24.147486 50.724758 -0.16422853 -24.000586 -0.17175952 -23.937847 -23.857176 51.581799
2800000000 -23.771366 46.977142 -0.16903044 -24.797977 -0.17404865 -24.811352 -23.498568 50.130379
2900000000 -23.130884 44.765263 -0.16865556 -25.735298 -0.1663916 -25.725489 -23.091726 48.316002
3000000000 -22.46344 44.302269 -0.19458514 -26.561449 -0.19519837 -26.628857 -22.713804 47.155666
3100000000 -22.20215 45.827637 -0.18358937 -27.434675 -0.1953259 -27.411491 -22.438955 46.030724
3200000000 -22.119257 47.612617 -0.20280173 -28.32056 -0.18606658 -28.336227 -22.266584 45.156681
3300000000 -22.159636 47.908543 -0.19350591 -29.164013 -0.20167002 -29.146696 -22.123625 44.488297
3400000000 -22.230288 45.958282 -0.19861372 -30.019331 -0.19755895 -29.969555 -21.995178 44.01313
3500000000 -22.026073 44.122654 -0.20193061 -30.884665 -0.20204125 -30.829773 -21.813745 43.044266
3600000000 -21.726208 42.236416 -0.21035132 -31.760151 -0.20461558 -31.706429 -21.674932 42.025368
3700000000 -21.431095 42.591114 -0.2209619 -32.637543 -0.21539792 -32.553593 -21.482483 41.809925
3800000000 -21.368246 43.543571 -0.22131245 -33.450657 -0.21756186 -33.449306 -21.36482 40.789288
3900000000 -21.53599 43.951199 -0.21282509 -34.246754 -0.22608167 -34.336704 -21.186745 39.942394
4000000000 -21.755556 41.30093 -0.22009449 -35.145683 -0.22234957 -35.155907 -21.013542 38.961861
4100000000 -21.679909 36.984589 -0.2251617 -35.854568 -0.22093357 -36.021503 -20.758165 37.822472
4200000000 -21.287762 32.988884 -0.22244221 -36.831806 -0.24391849 -36.823719 -20.539083 36.848351
4300000000 -20.804628 31.510628 -0.23898552 -37.710426 -0.23238489 -37.689827 -20.34609 36.167343
4400000000 -20.383005 32.217381 -0.25042099 -38.584599 -0.2464608 -38.574955 -20.195238 35.494926
4500000000 -20.296883 33.427326 -0.24673696 -39.393826 -0.25011826 -39.377541 -20.070267 34.905273
4600000000 -20.361883 34.272385 -0.24411893 -40.306374 -0.25840497 -40.271767 -19.949739 34.217316
4700000000 -20.465261 32.253643 -0.25797832 -41.12159 -0.25884292 -41.10952 -19.905098 32.90379
4800000000 -20.416618 29.596546 -0.24455489 -42.019245 -0.25218186 -41.924725 -19.84654 31.799871
4900000000 -20.143658 26.769146 -0.28651896 -42.917713 -0.2616103 -42.84919 -19.822966 30.65823
5000000000 -19.689753 26.061979 -0.28944629 -43.588631 -0.26950419 -43.713207 -19.789223 29.389475
5100000000 -19.283892 27.194061 -0.27499813 -44.448391 -0.2746399 -44.480473 -19.734093 28.469118
5200000000 -19.15226 28.066374 -0.2784901 -45.428276 -0.27479544 -45.340385 -19.611519 27.140669
5300000000 -19.238995 28.830523 -0.2897374 -46.314419 -0.27914703 -46.137119 -19.473637 26.198627
5400000000 -19.505966 28.557507 -0.30830723 -47.074066 -0.28099719 -46.980167 -19.291945 24.438761
5500000000 -19.614614 26.743116 -0.28800824 -47.830929 -0.28444812 -47.814411 -19.220713 23.570084
5600000000 -19.574997 24.358978 -0.29256609 -48.829391 -0.29727677 -48.692387 -19.176167 23.499365
5700000000 -19.234955 22.853577 -0.291408 -49.478561 -0.29863361 -49.624367 -19.074017 23.452562
5800000000 -18.867002 23.513939 -0.28843978 -50.462997 -0.29931992 -50.487358 -18.999359 23.535456
5900000000 -18.680655 24.950235 -0.29792547 -51.322853 -0.30206192 -51.311043 -18.835741 22.736206
6000000000 -18.785698 26.325159 -0.29674512 -52.205616 -0.30380139 -52.186512 -18.807533 21.26862
6100000000 -19.252583 26.624338 -0.31453118 -53.041836 -0.30739969 -52.994831 -18.853264 20.233049
6200000000 -19.7486 24.435759 -0.29031938 -53.836517 -0.30790594 -53.782051 -18.841698 19.353182
6300000000 -19.813154 19.817936 -0.30608845 -54.740231 -0.29765156 -54.601299 -18.716209 18.450027
6400000000 -19.426903 16.533888 -0.30809963 -55.482018 -0.29337502 -55.50988 -18.553478 17.94248
6500000000 -18.930082 15.748034 -0.30328006 -56.403683 -0.32070637 -56.424511 -18.380753 16.454454
6600000000 -18.651451 17.360363 -0.30601457 -57.180233 -0.33166161 -57.188721 -18.200611 14.965889
6700000000 -18.745508 19.806034 -0.29911387 -58.351387 -0.32457867 -58.095806 -18.116177 12.980511
6800000000 -19.376205 20.980946 -0.33341241 -59.106701 -0.33119196 -58.97805 -18.184061 12.406137
6900000000 -20.071505 18.587379 -0.31078684 -59.838112 -0.3263177 -59.766644 -18.242987 12.13587
7000000000 -20.319941 11.112578 -0.31937411 -60.647633 -0.29950574 -60.590416 -18.164469 11.783437
7100000000 -19.828154 4.6801996 -0.29162419 -61.397419 -0.29337001 -61.659985 -18.032007 11.003288
7200000000 -18.825722 3.1289799 -0.33077601 -62.566063 -0.34207317 -62.550674 -18.146734 9.5658178
7300000000 -18.162846 5.4363613 -0.35712993 -63.229424 -0.35023853 -63.213696 -18.175232 7.7686391
7400000000 -18.009171 9.6275749 -0.33976653 -64.276329 -0.33964756 -64.040947 -18.287991 6.4511976
7500000000 -18.446558 13.365859 -0.39101258 -65.099419 -0.35615256 -64.898003 -18.335356 6.1315322
7600000000 -19.146132 12.98745 -0.34475234 -65.776215 -0.36206004 -65.731697 -18.202686 5.2307448
7700000000 -19.575228 8.8216305 -0.34261683 -66.626205 -0.34587207 -66.575157 -17.971762 4.4165225
7800000000 -19.32506 4.2146044 -0.31522697 -67.720741 -0.36833507 -67.596443 -17.825678 3.0167348
7900000000 -18.685333 2.405519 -0.38585261 -68.753944 -0.37910393 -68.418907 -17.842321 1.9972283
8000000000 -18.426216 4.1567092 -0.4289228 -69.100998 -0.3713381 -69.096809 -17.805746 0.12387511
8100000000 -18.596727 7.6567078 -0.35107508 -70.135612 -0.35974106 -69.986038 -17.875139 0.35646343
8200000000 -19.268976 9.052577 -0.41662979 -70.978165 -0.38942131 -71.000397 -17.910048 1.171935
8300000000 -19.872385 5.2220492 -0.33986396 -71.710205 -0.41697514 -71.660316 -17.768082 0.43435365
8400000000 -20.231106 -1.0950084 -0.35126901 -72.691711 -0.40004224 -72.413391 -17.712095 -0.15517291
8500000000 -19.886581 -6.9308429 -0.38132218 -73.528023 -0.38143128 -73.339317 -17.706806 -1.914739
8600000000 -19.280613 -10.452056 -0.38613552 -74.42363 -0.36913285 -74.370392 -17.855415 -3.4096675
8700000000 -18.783821 -10.313951 -0.41913983 -74.777 -0.42839709 -75.235214 -17.979988 -3.9841101
8800000000 -18.455038 -11.005324 -0.35939211 -76.076141 -0.4140819 -75.781082 -17.983688 -3.1377954
8900000000 -17.968908 -10.290215 -0.38373214 -76.624893 -0.39198649 -76.800522 -17.705515 -3.9742224
9000000000 -17.347101 -8.6464567 -0.38915968 -77.703629 -0.39868999 -77.767998 -17.569736 -5.7434053
9100000000 -17.00569 -4.9760036 -0.41684663 -78.768333 -0.41586116 -78.715691 -17.540482 -7.3090582
9200000000 -17.244675 0.32235304 -0.41146979 -79.337433 -0.43158376 -79.499001 -17.749155 -8.9442682
9300000000 -18.038002 4.1858726 -0.46105838 -80.502586 -0.43600899 -80.226913 -17.941408 -8.9118614
9400000000 -19.447327 3.9124687 -0.40527537 -81.233368 -0.43339735 -81.049957 -17.923815 -8.5081768
9500000000 -20.225168 -5.8371449 -0.41203728 -82.023972 -0.41555604 -81.810143 -17.873405 -9.015172
9600000000 -19.403782 -15.475778 -0.43254223 -82.829689 -0.40198016 -82.570694 -17.753212 -10.599499
9700000000 -17.911486 -17.676962 -0.3796511 -83.691971 -0.39966816 -83.712044 -17.702009 -13.353491
9800000000 -16.851051 -10.685466 -0.48482072 -84.610641 -0.44014651 -84.613808 -17.967524 -14.806703
9900000000 -16.690821 -0.31783873 -0.45683473 -85.586807 -0.46254998 -85.543907 -18.161386 -15.620926
10000000000 -17.696894 9.8397255 -0.47199786 -86.519089 -0.48096201 -86.50396 -18.138895 -16.300543
10100000000 -19.94804 13.361227 -0.4818539 -87.235893 -0.52518058 -87.182053 -17.990864 -16.888414
10200000000 -22.4555 -1.5631335 -0.42771947 -88.05719 -0.48483434 -87.739594 -17.769026 -18.653397
10300000000 -21.256433 -23.460257 -0.42586941 -88.914902 -0.45356396 -88.679977 -17.735043 -20.742037
10400000000 -18.616306 -25.616955 -0.46708703 -89.566139 -0.45854267 -89.494995 -17.910063 -21.657995
10500000000 -17.134523 -16.390224 -0.51325011 -90.584297 -0.46300411 -90.314667 -18.048954 -21.68626
10600000000 -16.981522 -1.9113466 -0.50510716 -91.375694 -0.47127792 -91.277779 -18.107058 -21.244379
10700000000 -18.405195 12.418251 -0.53551567 -92.298767 -0.52339888 -92.140991 -18.003204 -21.304914
10800000000 -22.007799 20.549057 -0.47815558 -93.11869 -0.55291682 -92.853188 -17.875637 -22.864939
10900000000 -27.059229 -5.5856709 -0.41831318 -94.037865 -0.58380294 -93.597244 -17.887346 -24.142324
11000000000 -24.268578 -50.546551 -0.45416889 -94.755089 -0.51410729 -94.025566 -17.981224 -25.164103
11100000000 -19.501675 -47.523438 -0.46689245 -95.484367 -0.45615956 -95.369659 -18.095938 -25.394541
11200000000 -17.553268 -33.562401 -0.50535083 -96.130898 -0.49211273 -96.381439 -18.155569 -25.292824
11300000000 -17.238552 -18.420816 -0.54032749 -97.005844 -0.50063276 -97.12513 -18.113108 -25.574217
11400000000 -18.333223 -5.0104737 -0.49951252 -98.155312 -0.48368949 -97.975822 -17.949556 -26.525793
11500000000 -21.332952 -2.4439719 -0.4937354 -98.95314 -0.52842444 -98.891571 -17.995937 -28.518658
11600000000 -24.197161 -25.776232 -0.46520284 -100.089 -0.56110847 -99.392204 -18.215351 -29.283211
11700000000 -21.76688 -48.947151 -0.49989733 -100.64923 -0.52573299 -99.977806 -18.279558 -29.906082
11800000000 -18.549984 -47.009022 -0.49835974 -101.29468 -0.49864775 -101.04462 -18.397921 -29.547726
11900000000 -17.042202 -35.452225 -0.53660548 -102.06176 -0.49647993 -102.17549 -18.359812 -30.171989
12000000000 -16.856447 -21.299019 -0.54393101 -103.00792 -0.50511676 -103.21782 -18.36367 -31.895243
12100000000 -18.04752 -10.116757 -0.55891955 -104.19006 -0.51014298 -104.1368 -18.398897 -33.849682
12200000000 -20.653994 -6.9911284 -0.56806481 -104.89284 -0.52572393 -105.03913 -18.611786 -35.25425
12300000000 -22.955584 -22.779104 -0.51840627 -105.76434 -0.57768941 -105.73259 -18.778593 -35.476654
12400000000 -21.556 -43.081673 -0.54574662 -106.54872 -0.5730679 -106.31016 -18.84898 -35.526489
12500000000 -19.157965 -44.065742 -0.5485248 -107.27404 -0.56486166 -107.1601 -18.868443 -36.377983
12600000000 -17.755272 -35.158352 -0.55167454 -108.05291 -0.58547473 -107.98312 -18.883682 -37.731842
12700000000 -17.61821 -24.563147 -0.59250349 -108.95307 -0.54908496 -108.76791 -18.965456 -39.220482
12800000000 -18.468769 -15.719968 -0.57849818 -109.98627 -0.54578567 -110.04163 -19.161325 -40.83897
12900000000 -20.454269 -12.633346 -0.58204472 -110.71619 -0.58447039 -110.85394 -19.305376 -41.242085
13000000000 -22.287201 -20.408667 -0.59247351 -111.69827 -0.56912792 -111.55107 -19.33481 -42.301502
13100000000 -22.093489 -32.725655 -0.51642358 -112.47872 -0.57156885 -112.57761 -19.304981 -44.241379
13200000000 -20.760532 -38.06469 -0.6138916 -113.32075 -0.60036212 -113.15896 -19.313974 -45.50975
13300000000 -19.665148 -34.198448 -0.58052301 -114.13575 -0.59398395 -113.96585 -19.467104 -47.04446
13400000000 -19.46039 -28.001673 -0.60215747 -114.94088 -0.59297079 -114.82985 -19.58787 -48.127243
13500000000 -20.067905 -22.762602 -0.61522073 -115.84061 -0.62001663 -115.78043 -19.628929 -48.591461
13600000000 -21.31168 -21.420893 -0.60635555 -116.95603 -0.59274679 -116.52139 -19.54311 -49.198849
13700000000 -22.356823 -26.251301 -0.60851371 -117.42142 -0.59871662 -117.5527 -19.583511 -49.92041
13800000000 -22.601097 -34.174809 -0.61461174 -118.61557 -0.62508059 -118.29066 -19.725048 -51.248348
13900000000 -21.92144 -38.2729 -0.63562864 -119.31517 -0.62969941 -119.11435 -19.898348 -50.634186
14000000000 -21.454653 -37.125557 -0.63215488 -119.89864 -0.64269644 -119.93889 -20.044075 -51.094379
14100000000 -21.288803 -33.933372 -0.64336789 -120.95032 -0.65106177 -120.81731 -20.006239 -50.459564
14200000000 -21.629681 -31.702955 -0.66008449 -121.72273 -0.65948874 -121.65465 -19.970543 -51.378941
14300000000 -22.266666 -29.786097 -0.63388616 -122.56456 -0.68252522 -122.48795 -19.94622 -52.838821
14400000000 -22.783892 -29.925751 -0.6826579 -123.45953 -0.66896504 -123.13323 -20.071218 -53.9217
14500000000 -22.881172 -33.662178 -0.67595035 -124.33653 -0.67860216 -123.94501 -20.373119 -54.762222
14600000000 -22.874311 -37.624401 -0.67320281 -124.76778 -0.67460161 -124.73705 -20.52981 -55.430363
14700000000 -22.737204 -41.395393 -0.66737759 -125.85712 -0.66492599 -125.64317 -20.565245 -56.144321
14800000000 -22.381699 -42.35994 -0.67131799 -126.62541 -0.66907555 -126.50084 -20.615623 -57.307568
14900000000 -22.076641 -42.212944 -0.64690655 -127.20833 -0.68279183 -127.30828 -20.673359 -60.007366
15000000000 -22.034821 -40.669682 -0.68708676 -128.83073 -0.68622839 -128.20039 -21.144678 -60.33802
15100000000 -21.982281 -38.112591 -0.71448284 -129.01202 -0.68793589 -129.06651 -21.575344 -61.66003
15200000000 -22.329845 -36.343208 -0.68658704 -129.91245 -0.69169253 -129.85612 -21.781816 -61.271847
15300000000 -22.955507 -35.38586 -0.71473432 -130.90726 -0.70306998 -130.71902 -21.718027 -61.92057
15400000000 -23.518547 -36.663403 -0.69396126 -131.56619 -0.70643133 -131.48952 -21.710848 -63.666401
15500000000 -23.750479 -39.451805 -0.70140493 -132.49261 -0.70794874 -132.35246 -21.817911 -66.289429
15600000000 -23.757042 -42.640396 -0.69129735 -133.3197 -0.70888877 -133.16203 -22.172802 -68.741104
15700000000 -23.470221 -42.749062 -0.70857674 -134.28065 -0.71096528 -133.98642 -22.581148 -68.654732
15800000000 -23.179174 -41.846321 -0.73053402 -134.87607 -0.71237111 -134.84497 -22.771769 -68.083046
15900000000 -23.471039 -39.039043 -0.71623415 -135.86513 -0.73911035 -135.63388 -22.809971 -68.137337
16000000000 -23.78063 -37.688732 -0.7574116 -136.50381 -0.72883481 -136.46275 -22.663973 -69.268288
16100000000 -24.332706 -36.050079 -0.68422067 -137.39838 -0.74442613 -137.25572 -22.756403 -72.197647
16200000000 -25.030462 -36.453972 -0.75915658 -138.53706 -0.74280685 -138.04465 -23.008703 -73.652336
16300000000 -25.193848 -39.447163 -0.73616034 -138.90921 -0.72862512 -138.92987 -23.4606 -74.929344
16400000000 -25.181517 -42.682129 -0.71903014 -139.93817 -0.73760813 -139.75218 -23.865934 -75.009354
16500000000 -24.945621 -42.736111 -0.76214504 -140.91022 -0.73709953 -140.59145 -23.999195 -74.658775
16600000000 -24.69342 -40.372105 -0.74342853 -141.57156 -0.74679482 -141.44118 -24.078787 -76.522766
16700000000 -24.991064 -35.744801 -0.75322914 -142.31819 -0.76009917 -142.28526 -24.112532 -79.360321
16800000000 -25.571678 -30.631506 -0.73260379 -143.32965 -0.74911004 -143.04158 -24.270479 -82.722107
16900000000 -26.770987 -28.584661 -0.75381905 -144.30469 -0.76046705 -143.86044 -24.79715 -84.316528
17000000000 -28.218307 -32.331718 -0.79488456 -144.85312 -0.75701773 -144.65302 -25.054003 -84.883797
17100000000 -28.907915 -44.113262 -0.73854667 -145.60684 -0.75340277 -145.51602 -25.24358 -84.026276
17200000000 -28.263376 -51.03878 -0.75886738 -146.73692 -0.76085567 -146.4563 -25.261452 -85.218216
17300000000 -27.224749 -51.044407 -0.75929809 -147.44017 -0.7529031 -147.26154 -25.205608 -86.730202
17400000000 -26.831465 -44.822067 -0.78583115 -148.33218 -0.76241934 -148.13474 -25.366829 -89.788612
17500000000 -26.867018 -35.784298 -0.7646361 -148.90141 -0.7725898 -148.97598 -25.792984 -91.015068
17600000000 -28.323742 -28.67646 -0.7654351 -149.9709 -0.78323364 -149.76103 -26.377239 -92.953621
17700000000 -30.449081 -27.983383 -0.78997123 -150.77115 -0.77418619 -150.63153 -26.703861 -92.820808
17800000000 -32.536236 -37.409988 -0.76752305 -151.5078 -0.78427106 -151.41023 -26.97427 -93.051414
17900000000 -31.651472 -53.25301 -0.76795554 -152.45007 -0.76550335 -152.2097 -26.972569 -94.867096
18000000000 -29.981564 -51.684959 -0.78033781 -153.31938 -0.78062284 -153.15239 -27.336424 -96.733963
18100000000 -29.153118 -42.247662 -0.79348469 -154.1189 -0.79418832 -153.95027 -27.755493 -99.026184
18200000000 -29.140871 -29.147577 -0.79497719 -154.76884 -0.79202223 -154.81578 -28.393259 -100.51514
18300000000 -30.971678 -17.224602 -0.76161659 -155.7907 -0.80495507 -155.62973 -28.960405 -100.62574
18400000000 -33.843693 -14.143024 -0.8009252 -156.68637 -0.80152941 -156.57368 -29.498882 -101.6108
18500000000 -35.995255 -27.980433 -0.78835505 -157.49559 -0.80334544 -157.32343 -29.842104 -101.34911
18600000000 -34.499382 -47.748802 -0.79318237 -158.35284 -0.80195469 -158.22853 -30.07386 -103.11922
18700000000 -31.919907 -44.754822 -0.80488932 -159.10835 -0.80849534 -159.00095 -30.755268 -107.49676
18800000000 -30.488249 -32.689758 -0.81579292 -160.01086 -0.81324768 -159.83435 -31.785282 -112.83614
18900000000 -30.403608 -17.717064 -0.79139978 -160.73891 -0.82354397 -160.66273 -32.730801 -117.53122
19000000000 -31.593117 -1.9023398 -0.8126362 -161.76335 -0.83025169 -161.53212 -33.728184 -121.51222
19100000000 -33.65263 9.0268183 -0.81783211 -162.48589 -0.82655865 -162.36946 -34.375561 -120.4653
19200000000 -36.158031 6.0066648 -0.83125275 -163.2597 -0.83515406 -163.23666 -34.601257 -124.21978
19300000000 -36.072159 -10.954599 -0.8136301 -164.15488 -0.84140491 -163.99342 -35.048859 -128.53461
19400000000 -34.160538 -16.627071 -0.82472444 -165.08603 -0.82704997 -164.81746 -35.238678 -139.33878
19500000000 -32.098415 -7.4354329 -0.82546002 -165.89308 -0.83777899 -165.70874 -35.638287 -148.83594
19600000000 -31.664656 7.5582833 -0.84831744 -166.70792 -0.83333498 -166.55315 -35.829208 -154.6046
19700000000 -31.545517 21.177307 -0.82931978 -167.46106 -0.8481406 -167.41177 -36.346802 -159.40778
19800000000 -32.570728 31.783541 -0.84539771 -168.47714 -0.84865642 -168.2392 -36.749592 -160.1841
19900000000 -33.497311 32.507149 -0.86541283 -169.17714 -0.86870015 -169.11911 -37.013451 -167.129
20000000000 -33.833363 24.430479 -0.84610665 -169.93488 -0.87150967 -169.81841 -37.345463 -176.61832
20100000000 -32.723896 19.591873 -0.84100342 -170.83101 -0.86976516 -170.65225 -36.499893 172.31662
20200000000 -31.446041 25.935774 -0.84619564 -171.79404 -0.87230831 -171.57852 -36.120651 161.3159
20300000000 -30.316404 34.840042 -0.88805294 -172.5564 -0.86707497 -172.36673 -36.260838 156.59853
20400000000 -30.065401 43.097443 -0.87121391 -173.21307 -0.88312769 -173.2135 -36.522076 150.11244
20500000000 -30.475729 46.327126 -0.8634358 -174.12427 -0.87226403 -174.02483 -36.981735 144.39325
20600000000 -30.842535 45.795067 -0.87288684 -175.07072 -0.87439513 -174.93352 -36.031334 138.63847
