!Keysight Technologies,N5222B,MY58421742,A.17.00.05
!Date: Friday, September 20, 2024 13:24:08
!Correction: S11(C  2-Port  ) 
!S21(C  2-Port  ) 
!S12(C  2-Port  ) 
!S22(C  2-Port  ) 
!S2P File: Measurements: S11, S21, S12, S22:
# Hz S  dB   R 50
1000000000 -39.416893 71.179543 -0.030494086 -2.8023894 -0.026946848 -2.8089323 -39.36726 70.558105
1100000000 -39.043106 69.535797 -0.020821251 -3.1298006 -0.02398188 -3.0696547 -38.668468 70.40905
1200000000 -38.732948 69.060631 -0.032496076 -3.3925912 -0.03453004 -3.3494172 -38.003059 70.749756
1300000000 -38.438641 72.781319 -0.026098318 -3.6761727 -0.019434858 -3.6430666 -38.678837 69.446556
1400000000 -37.896534 72.049484 -0.019646522 -3.978225 -0.019775759 -3.885772 -37.515121 68.808739
1500000000 -36.88459 70.239914 -0.032823659 -4.1807446 -0.028075356 -4.1807041 -36.791443 70.15081
1600000000 -35.791454 68.941574 -0.034216419 -4.4854698 -0.029552339 -4.4217196 -35.849041 68.427536
1700000000 -35.405445 68.593292 -0.028930265 -4.7558346 -0.027753603 -4.6843777 -35.140995 70.865219
1800000000 -34.994068 70.818977 -0.025912382 -5.0416899 -0.02727323 -4.9819098 -34.820404 69.454079
1900000000 -34.983746 71.612679 -0.027525393 -5.3121886 -0.033131443 -5.2709785 -34.788689 69.550262
2000000000 -34.989922 71.083344 -0.032749064 -5.6076241 -0.028464878 -5.5144043 -34.85638 70.238327
2100000000 -34.48922 70.232605 -0.032392018 -5.8561115 -0.028904468 -5.7845974 -34.572533 70.689667
2200000000 -34.275955 69.973404 -0.034013178 -6.170764 -0.031805262 -6.0784283 -34.248592 71.245255
2300000000 -33.945908 67.741745 -0.033657331 -6.3920097 -0.027481368 -6.3477702 -33.804356 72.277832
2400000000 -33.599815 67.220383 -0.027076306 -6.7150006 -0.03366594 -6.5457687 -33.391357 72.868141
2500000000 -33.420292 67.54705 -0.034488816 -6.9557447 -0.026381403 -6.9016938 -33.171036 71.964912
2600000000 -32.815582 67.561089 -0.035693668 -7.2434907 -0.037228856 -7.1205974 -33.0089 70.426918
2700000000 -32.417065 67.024261 -0.035467912 -7.5649076 -0.042981565 -7.3719964 -32.682087 70.139938
2800000000 -31.70636 65.539085 -0.040495515 -7.7972331 -0.035977378 -7.6411743 -31.992514 68.977463
2900000000 -31.169672 64.390205 -0.035316806 -8.073391 -0.034324959 -7.9721045 -31.258543 68.846153
3000000000 -30.638924 64.262985 -0.03855408 -8.4189215 -0.044724636 -8.2282286 -30.70252 69.112595
3100000000 -30.595379 65.083275 -0.031858459 -8.6186256 -0.041076649 -8.4969549 -30.404758 67.93824
3200000000 -30.722851 67.22332 -0.033571504 -8.8949156 -0.03127699 -8.752368 -30.466938 66.805618
3300000000 -30.602888 67.555832 -0.035618238 -9.1943321 -0.034220856 -8.9999552 -30.385754 65.773308
3400000000 -30.549364 66.643974 -0.042814251 -9.4343443 -0.034410279 -9.2756052 -30.462189 65.710953
3500000000 -30.352909 66.056786 -0.039811265 -9.726078 -0.034232073 -9.4930935 -30.285736 65.355217
3600000000 -30.246672 65.087891 -0.041295379 -10.040915 -0.031175306 -9.7829809 -30.117935 65.208954
3700000000 -30.112574 65.016838 -0.038517777 -10.240086 -0.046055812 -10.084935 -29.958059 66.400093
3800000000 -29.889238 65.102417 -0.041814942 -10.531128 -0.036802258 -10.364094 -29.93821 65.944214
3900000000 -29.902094 64.984627 -0.031513739 -10.74117 -0.034962155 -10.597133 -29.776024 65.865585
4000000000 -29.645666 63.781891 -0.036444616 -11.059368 -0.034032743 -10.899345 -29.46427 65.602753
4100000000 -29.179796 61.210262 -0.037911393 -11.236059 -0.030347846 -11.117644 -29.032804 65.406013
4200000000 -28.803734 58.80582 -0.033479419 -11.584014 -0.043263923 -11.371582 -28.586756 65.469421
4300000000 -28.581247 57.929634 -0.037558362 -11.882536 -0.035314977 -11.692266 -28.357494 66.036896
4400000000 -28.41114 59.162807 -0.038766414 -12.140748 -0.03402831 -11.933851 -28.228125 66.045372
4500000000 -28.424381 59.721786 -0.038717836 -12.453142 -0.032077767 -12.217394 -28.051035 65.904343
4600000000 -28.312098 60.686108 -0.028443251 -12.74158 -0.036569133 -12.481979 -27.883005 65.695694
4700000000 -28.105659 59.442093 -0.032199033 -13.007877 -0.039525472 -12.746428 -27.730345 63.943588
4800000000 -27.92248 58.282707 -0.026136599 -13.301713 -0.028637635 -12.981048 -27.533138 62.210663
4900000000 -27.713848 57.193844 -0.040146191 -13.564946 -0.028917236 -13.301692 -27.491266 61.469955
5000000000 -27.446953 57.423225 -0.039840262 -13.825584 -0.026578298 -13.594652 -27.50915 61.128609
5100000000 -27.230612 59.362377 -0.030281113 -14.064915 -0.0316316 -13.830573 -27.529644 60.5732
5200000000 -27.045404 59.850655 -0.028060244 -14.386653 -0.029446004 -14.081353 -27.382532 60.073364
5300000000 -26.995829 59.977947 -0.026345463 -14.686157 -0.026609553 -14.356878 -27.129087 59.266796
5400000000 -27.176733 59.449497 -0.029898986 -14.939726 -0.026606688 -14.611777 -26.796593 58.56982
5500000000 -27.149288 58.672352 -0.031180782 -15.187911 -0.015160403 -14.895152 -26.741415 57.668129
5600000000 -27.138865 56.784492 -0.020564796 -15.535703 -0.026875481 -15.177005 -26.828239 58.910477
5700000000 -27.034693 56.608974 -0.025682967 -15.720506 -0.025452264 -15.499619 -26.963005 59.860584
5800000000 -26.708502 57.62344 -0.019979896 -16.030951 -0.023929041 -15.772163 -26.977758 61.780121
5900000000 -26.475887 60.094982 -0.020325782 -16.379137 -0.016744738 -16.019806 -26.634777 62.777206
6000000000 -26.426434 60.521431 -0.016773323 -16.633366 -0.019050825 -16.339962 -26.359573 61.324486
6100000000 -26.602428 59.517628 -0.025303068 -16.911255 -0.019819967 -16.598982 -26.415379 59.412407
6200000000 -26.891809 57.565681 -0.014702981 -17.157028 -0.029122325 -16.81794 -26.366901 59.11916
6300000000 -26.600542 54.795074 -0.018921869 -17.446098 -0.019916704 -17.110907 -26.360884 60.367733
6400000000 -26.316898 54.492741 -0.017004346 -17.708746 -0.012410883 -17.38909 -26.171824 61.934914
6500000000 -25.980068 54.068916 -0.0073581035 -18.019306 -0.014445589 -17.695652 -25.6194 61.671555
6600000000 -25.719576 55.458015 -0.013729074 -18.289711 -0.017575849 -17.959393 -25.092075 60.28896
6700000000 -25.799925 57.005077 0.005979165 -18.649508 -0.014467665 -18.239735 -24.759645 57.799622
6800000000 -26.22476 56.882301 -0.013096542 -18.994925 -0.017987564 -18.594971 -24.871178 55.928108
6900000000 -26.59935 54.274376 -0.007297169 -19.172461 -0.018638488 -18.803711 -25.150539 56.020077
7000000000 -26.466591 49.937252 -0.0051162676 -19.433283 0.00054564193 -19.017363 -25.21117 57.072067
7100000000 -25.793173 46.903217 -0.0076438603 -19.647762 0.01021139 -19.384096 -24.944853 57.560886
7200000000 -25.208996 47.01569 -0.0082556289 -20.100594 -0.0092498399 -19.73085 -24.695131 55.608513
7300000000 -24.665339 49.283775 -0.01646072 -20.378277 -0.013694797 -19.977737 -24.593582 53.382961
7400000000 -24.673288 52.820457 -0.0038203779 -20.678146 -0.010700452 -20.265907 -24.714432 51.292686
7500000000 -25.146563 54.134769 -0.026819741 -21.09786 -0.013978114 -20.547621 -25.004229 50.956444
7600000000 -25.630871 54.265228 -0.013634292 -21.243952 -0.013911893 -20.853685 -25.056198 52.301861
7700000000 -25.868429 51.527851 -0.012985417 -21.525381 -0.012212812 -21.05731 -24.71376 54.355453
7800000000 -25.592682 48.595978 0.0033188658 -21.815332 -0.017791059 -21.450224 -24.170301 54.140335
7900000000 -25.097475 48.468475 -0.0041704192 -22.303728 -0.022411555 -21.745905 -23.927507 51.188023
8000000000 -24.947184 49.344246 -0.036780849 -22.484322 -0.022295769 -21.959194 -23.816683 50.045639
8100000000 -25.064522 50.899837 -0.0086459713 -22.712675 -0.014197561 -22.245062 -24.075338 49.178471
8200000000 -25.483702 50.355259 -0.018165883 -23.121929 -0.012205284 -22.575724 -24.34392 50.85461
8300000000 -25.640806 48.177727 -0.0080963895 -23.246056 -0.036916606 -22.918747 -24.187153 52.856102
8400000000 -25.350733 43.526199 -0.0014247386 -23.539169 -0.030257653 -23.142897 -23.937296 53.226353
8500000000 -24.913946 40.296783 -0.021979647 -23.873272 -0.026410572 -23.394463 -23.579397 51.49049
8600000000 -24.471331 38.4576 -0.015458363 -24.197092 -0.0079021463 -23.705465 -23.609499 49.157635
8700000000 -24.109177 38.787216 -0.053675618 -24.391321 -0.02423411 -24.071516 -23.91173 49.458141
8800000000 -23.666153 39.064968 -0.012360001 -24.679272 -0.030017843 -24.203636 -24.262209 50.953621
8900000000 -23.137737 41.095444 -0.031001408 -24.970407 -0.019524047 -24.579668 -23.952822 53.937897
9000000000 -22.60708 45.03603 -0.02463188 -25.329412 -0.021179687 -24.900291 -23.432667 54.437641
9100000000 -22.370039 50.150608 -0.018502004 -25.725012 -0.026351454 -25.252708 -23.05142 52.467396
9200000000 -22.770046 54.780117 -0.040641576 -25.96866 -0.027950559 -25.497334 -22.946688 49.281162
9300000000 -23.732883 56.834721 -0.040763862 -26.424597 -0.035754479 -25.73527 -23.300808 47.97229
9400000000 -24.985111 52.420082 -0.033743944 -26.490932 -0.049670804 -26.02569 -23.632353 50.018879
9500000000 -24.948776 42.084618 -0.03996174 -26.823524 -0.047560908 -26.262453 -23.63179 52.551567
9600000000 -23.740828 37.275867 -0.046493001 -27.094378 -0.041199211 -26.453047 -23.184397 52.95343
9700000000 -22.322704 38.830563 -0.045297183 -27.335079 -0.039179098 -26.843744 -22.666271 50.223312
9800000000 -21.648033 46.387146 -0.065357491 -27.887533 -0.056277007 -27.217751 -22.73678 47.256645
9900000000 -21.950388 57.095364 -0.055735786 -28.134172 -0.051183965 -27.561232 -22.972048 45.471798
10000000000 -23.428478 64.755188 -0.053320255 -28.435602 -0.051345054 -27.899202 -23.193203 46.020554
10100000000 -25.671793 63.172913 -0.065025084 -28.656763 -0.072534025 -28.234312 -23.052872 47.75267
10200000000 -26.678183 45.788952 -0.050659876 -28.743769 -0.080707572 -28.343161 -22.594177 48.044273
10300000000 -24.471191 31.979591 -0.061786667 -28.994112 -0.069678247 -28.502008 -22.133101 45.930832
10400000000 -22.367203 34.752514 -0.074351147 -29.372505 -0.077746265 -28.756804 -22.099712 42.735432
10500000000 -21.352497 44.820141 -0.092786945 -29.832996 -0.085571885 -29.066095 -22.402493 41.191811
10600000000 -21.78517 56.99136 -0.080826767 -30.123823 -0.08333233 -29.37677 -22.724096 42.52478
10700000000 -23.636471 66.951675 -0.086718105 -30.438421 -0.090915844 -29.849283 -22.65667 44.875439
10800000000 -27.214165 64.575722 -0.073362984 -30.524605 -0.10904132 -30.095644 -22.334 45.891003
10900000000 -28.689888 34.567238 -0.060159046 -30.611391 -0.12439474 -30.400425 -21.902281 44.90823
11000000000 -24.883377 15.050713 -0.080684364 -30.849119 -0.1309332 -30.434418 -21.850374 42.706566
11100000000 -22.061443 20.707935 -0.087017581 -31.275249 -0.08102826 -30.63501 -22.036249 42.31596
11200000000 -20.966806 33.509033 -0.10851233 -31.553852 -0.085566863 -31.066689 -22.28878 43.564018
11300000000 -21.141428 46.340141 -0.12435105 -32.021862 -0.1022463 -31.350483 -22.290009 46.064762
11400000000 -22.494726 55.478851 -0.10038621 -32.228325 -0.10901398 -31.562082 -21.898693 47.044945
11500000000 -24.812916 52.151348 -0.099597633 -32.411285 -0.115713 -31.950628 -21.609756 45.613087
11600000000 -25.14677 32.203568 -0.081458166 -32.637634 -0.14435415 -32.2411 -21.547581 43.597359
11700000000 -22.891256 20.280672 -0.10438479 -32.922081 -0.14976963 -32.319912 -21.720234 42.734371
11800000000 -20.781862 24.78772 -0.11505587 -33.274235 -0.1259944 -32.604645 -21.908445 43.581314
11900000000 -19.892254 35.442043 -0.13750263 -33.646564 -0.11756743 -32.951485 -21.884489 45.91626
12000000000 -20.188383 46.922958 -0.13537233 -33.917297 -0.10922634 -33.190285 -21.604891 46.286121
12100000000 -21.71884 54.805542 -0.12029627 -34.277775 -0.11126018 -33.446136 -21.320507 45.046032
12200000000 -23.683342 52.898224 -0.11522998 -34.522602 -0.10607231 -33.753475 -21.2187 43.107449
12300000000 -24.361111 36.436825 -0.11682971 -34.659939 -0.14057101 -34.211689 -21.318962 41.86335
12400000000 -22.513216 26.219166 -0.14420857 -35.003082 -0.16013475 -34.388004 -21.428677 42.183563
12500000000 -20.74098 28.573139 -0.15363777 -35.242805 -0.14951536 -34.654125 -21.476725 42.935963
12600000000 -19.855482 36.716766 -0.15359056 -35.625351 -0.16275744 -35.020893 -21.298845 42.982952
12700000000 -19.978785 46.255035 -0.17061459 -35.987186 -0.15560451 -35.18811 -21.229996 42.091488
12800000000 -21.080521 52.473942 -0.14093946 -36.238037 -0.12888213 -35.399502 -21.237534 40.776386
12900000000 -22.58569 49.7029 -0.15132934 -36.498829 -0.13782193 -35.842682 -21.245661 40.184383
13000000000 -23.310396 39.367065 -0.15272819 -36.78566 -0.15449603 -35.980625 -21.293823 40.105995
13100000000 -22.532747 31.759823 -0.15379438 -36.828785 -0.1488689 -36.382515 -21.091467 40.791256
13200000000 -21.222145 31.599552 -0.17532545 -37.375553 -0.18287437 -36.570877 -20.954887 39.796867
13300000000 -20.699356 37.233219 -0.17662637 -37.60096 -0.18326236 -36.871418 -20.841866 38.706741
13400000000 -20.621677 43.187321 -0.18911676 -37.96167 -0.19000153 -37.100746 -20.815599 37.19957
13500000000 -21.256941 46.88604 -0.19418016 -38.258614 -0.18818 -37.47327 -20.802031 37.428112
13600000000 -22.130037 45.512207 -0.16058573 -38.425694 -0.19574913 -37.61541 -20.649984 37.415485
13700000000 -22.591835 39.757774 -0.19200756 -38.711643 -0.17586076 -37.93964 -20.453531 37.961052
13800000000 -22.23313 33.749023 -0.17776155 -39.009487 -0.20411524 -38.283714 -20.256374 36.731682
13900000000 -21.445141 32.224812 -0.21251082 -39.311691 -0.21138772 -38.493603 -20.35747 36.409786
14000000000 -21.021997 33.502552 -0.2301576 -39.518673 -0.23047642 -38.74823 -20.471897 35.992657
14100000000 -20.82793 36.792019 -0.22584389 -39.864849 -0.23020619 -39.082409 -20.464199 37.127476
14200000000 -21.120419 38.316772 -0.23967262 -40.099766 -0.23865952 -39.331268 -20.284187 37.694183
14300000000 -21.679064 38.819492 -0.23667832 -40.203262 -0.25214785 -39.555103 -19.935541 37.001526
14400000000 -22.141592 37.154945 -0.23526418 -40.494736 -0.26798654 -39.664818 -19.805029 34.846771
14500000000 -22.130404 35.592434 -0.23397018 -40.810867 -0.26335347 -39.807102 -20.042095 32.800442
14600000000 -21.832172 33.930771 -0.26229358 -40.833229 -0.25824398 -40.035686 -20.321012 32.508728
14700000000 -21.250469 32.818684 -0.24151343 -41.261612 -0.23791051 -40.380035 -20.506403 33.855057
14800000000 -20.721819 33.947865 -0.2469337 -41.489243 -0.24487805 -40.713036 -20.394106 35.367207
14900000000 -20.383211 34.933491 -0.27358496 -41.612633 -0.25447398 -40.934364 -20.106913 35.001015
15000000000 -20.265926 37.07864 -0.19935788 -42.100697 -0.26146433 -41.200245 -19.947371 33.909336
15100000000 -20.369373 38.463116 -0.26263234 -42.535061 -0.25429916 -41.432667 -20.119129 32.898392
15200000000 -20.681492 39.514523 -0.25186968 -42.621315 -0.25855002 -41.76606 -20.32725 32.609375
15300000000 -20.950926 38.727669 -0.25749269 -43.045853 -0.25435185 -42.035179 -20.474857 33.893909
15400000000 -21.040594 35.633026 -0.28484499 -42.997986 -0.26924667 -42.306744 -20.31814 35.024803
15500000000 -20.746775 33.510872 -0.26390633 -43.391495 -0.27618745 -42.509834 -20.050123 34.477192
15600000000 -20.391979 33.231205 -0.27088624 -43.557308 -0.27650332 -42.752571 -19.86747 32.676464
15700000000 -20.093561 34.438343 -0.25433263 -43.866096 -0.27259371 -43.007019 -19.944445 31.249544
15800000000 -19.934689 36.310486 -0.28449231 -44.313084 -0.28517589 -43.238171 -20.21736 30.922848
15900000000 -20.089504 37.601318 -0.26814595 -44.481224 -0.27724081 -43.561764 -20.420963 32.024178
16000000000 -20.194798 37.250141 -0.31418109 -44.890236 -0.28870812 -43.85714 -20.301336 33.005154
16100000000 -20.40749 36.864029 -0.30938616 -44.613884 -0.32168612 -44.037186 -20.008904 33.739712
16200000000 -20.500916 34.769497 -0.24722059 -45.257629 -0.30255619 -44.152214 -19.876947 32.353806
16300000000 -20.325876 33.731285 -0.2947101 -45.399403 -0.28873855 -44.553005 -19.798929 31.037292
16400000000 -20.035358 33.208351 -0.28393406 -45.627743 -0.29231164 -44.797489 -20.001368 30.288816
16500000000 -19.809868 33.975891 -0.29617032 -46.061642 -0.3071574 -45.053421 -20.14986 30.130148
16600000000 -19.783049 35.525455 -0.3031818 -46.210697 -0.30658567 -45.173969 -20.184711 31.068184
16700000000 -19.861738 36.970631 -0.31213787 -46.579205 -0.29568011 -45.570457 -19.964825 30.727949
16800000000 -20.228281 38.128696 -0.28586921 -46.616447 -0.31852388 -45.83876 -19.694899 29.470184
16900000000 -20.666077 36.597931 -0.27363461 -46.987904 -0.314318 -46.006725 -19.57798 27.76416
17000000000 -20.939678 32.578407 -0.28429085 -47.505463 -0.31820214 -46.197441 -19.665329 27.099007
17100000000 -20.746006 28.440189 -0.31480059 -47.402702 -0.30792484 -46.468327 -19.760143 26.503586
17200000000 -20.020517 25.83976 -0.30221149 -47.798332 -0.32045946 -46.818272 -19.74996 27.3218
17300000000 -19.472689 27.477955 -0.31427848 -47.960278 -0.31808099 -46.979027 -19.596388 27.988045
17400000000 -19.217093 30.554565 -0.2910105 -48.35878 -0.31153879 -47.250446 -19.375969 27.965954
17500000000 -19.469753 34.414368 -0.32338688 -48.755497 -0.29628533 -47.571609 -19.097582 27.591726
17600000000 -20.107718 35.077946 -0.29108468 -48.751144 -0.32348728 -47.913204 -19.075827 26.905664
17700000000 -20.763033 31.235582 -0.29441148 -49.171898 -0.32242432 -48.133339 -19.164093 26.314674
17800000000 -20.587933 24.703825 -0.31720093 -49.378803 -0.32717782 -48.318287 -19.296438 27.071732
17900000000 -19.783772 21.0214 -0.31855896 -49.498352 -0.32359716 -48.601048 -19.28923 27.239588
18000000000 -18.957373 23.131487 -0.30748525 -49.845844 -0.33319414 -48.824993 -19.097607 27.703966
18100000000 -18.728109 27.394222 -0.31395569 -50.253174 -0.328711 -49.112358 -18.966227 27.18548
18200000000 -19.127554 32.521896 -0.33535019 -50.578941 -0.31860021 -49.434803 -18.878916 26.965828
18300000000 -20.113697 32.611568 -0.30873439 -50.576469 -0.31691495 -49.72982 -19.01228 26.536297
18400000000 -20.755383 25.934935 -0.30623287 -50.991013 -0.32509056 -50.020481 -19.144203 26.543482
18500000000 -20.23682 18.468859 -0.32727161 -51.161755 -0.33014974 -50.122852 -19.227121 27.450697
18600000000 -19.01647 16.299583 -0.32639304 -51.414391 -0.33173481 -50.387703 -19.171764 27.504942
18700000000 -18.171515 20.787457 -0.33855212 -51.659042 -0.34021807 -50.729294 -19.09268 27.506479
18800000000 -18.077614 27.7276 -0.33450127 -52.235233 -0.33697295 -50.934586 -19.076157 26.828894
18900000000 -18.654848 33.724777 -0.34485209 -52.245033 -0.31666544 -51.388329 -19.112486 26.029657
19000000000 -19.792273 33.825653 -0.30356765 -52.586971 -0.35174617 -51.642281 -19.308664 25.341604
19100000000 -20.544401 26.427687 -0.30872577 -52.796974 -0.34934014 -51.781631 -19.521114 24.752359
19200000000 -20.076809 17.847876 -0.3358323 -53.082283 -0.33127549 -52.079624 -19.553219 24.535738
19300000000 -18.818171 16.571819 -0.34605512 -53.338066 -0.3340148 -52.362431 -19.452217 23.729454
19400000000 -17.997562 21.689766 -0.34663543 -53.607468 -0.34834826 -52.556187 -19.245939 23.022564
19500000000 -18.030529 29.075884 -0.33782235 -53.985443 -0.34636235 -52.795872 -19.145981 22.287956
19600000000 -18.767872 33.74725 -0.32759875 -54.354263 -0.36881804 -53.077461 -19.208529 21.505056
19700000000 -20.110315 32.510735 -0.3473869 -54.533882 -0.34749737 -53.320099 -19.1833 21.261829
19800000000 -20.672428 23.130402 -0.30495617 -54.702354 -0.34689954 -53.602772 -19.167576 20.978769
19900000000 -19.917574 15.544655 -0.33371934 -55.140007 -0.35198703 -53.968277 -19.038368 20.955305
20000000000 -18.671406 15.808174 -0.3727679 -55.353306 -0.34892663 -54.223782 -18.833881 21.116566
20100000000 -18.029297 21.661709 -0.38518131 -55.498573 -0.36211744 -54.577496 -18.71397 20.397572
20200000000 -18.185074 28.7687 -0.3418802 -55.755344 -0.38827953 -54.837528 -18.67613 20.170729
20300000000 -19.159586 31.789112 -0.31688014 -56.411724 -0.38277394 -54.912949 -18.675327 19.213133
20400000000 -20.479465 27.740145 -0.37143087 -56.690804 -0.386453 -55.126659 -18.733902 19.736832
20500000000 -20.930779 18.424831 -0.37875283 -56.560703 -0.3698321 -55.33963 -18.691309 19.306227
20600000000 -19.84959 11.773516 -0.36779803 -56.77314 -0.37992516 -55.68433 -18.525137 19.505053
20700000000 -18.694809 13.407863 -0.36460009 -57.227688 -0.3851929 -56.009644 -18.369686 19.469419
