!Keysight Technologies,N5222B,MY58421742,A.17.00.05
!Date: Friday, September 20, 2024 13:27:39
!Correction: S11(C  2-Port  ) 
!S21(C  2-Port  ) 
!S12(C  2-Port  ) 
!S22(C  2-Port  ) 
!S2P File: Measurements: S11, S21, S12, S22:
# Hz S  dB   R 50
1000000000 -40.439068 -49.311062 -0.072182119 -13.035016 -0.075009786 -12.883793 -39.749779 -50.19746
1100000000 -39.853146 -58.445156 -0.071783394 -14.321969 -0.065165669 -14.235121 -39.288162 -56.680046
1200000000 -39.544815 -70.716789 -0.081750423 -15.519675 -0.076115549 -15.461823 -38.295212 -61.576736
1300000000 -38.590073 -75.714043 -0.082682192 -16.848518 -0.081211291 -16.792204 -37.537025 -69.727753
1400000000 -37.142036 -83.988907 -0.080747128 -18.151173 -0.090355225 -17.995382 -36.83913 -71.913742
1500000000 -36.598145 -79.024933 -0.091400921 -19.301527 -0.090882272 -19.272316 -36.563374 -70.958992
1600000000 -35.908382 -74.529945 -0.086963177 -20.665199 -0.090261132 -20.518984 -36.353115 -70.14283
1700000000 -36.279423 -72.617569 -0.085913524 -21.911829 -0.090951264 -21.753969 -35.936844 -70.262573
1800000000 -36.643509 -80.057564 -0.094335578 -23.19491 -0.098214999 -23.002104 -35.673138 -73.031021
1900000000 -36.153591 -90.618042 -0.098412529 -24.464699 -0.099275306 -24.25555 -35.128937 -78.57489
2000000000 -34.887371 -96.546967 -0.096109442 -25.769329 -0.094368644 -25.611383 -34.767452 -85.666008
2100000000 -33.845951 -95.992958 -0.10677053 -27.022417 -0.10304781 -26.822556 -34.350323 -89.187416
2200000000 -33.330589 -94.430275 -0.10073061 -28.292131 -0.10672278 -28.108938 -34.055664 -92.678276
2300000000 -33.488293 -92.527229 -0.11095478 -29.518244 -0.10659464 -29.395464 -33.923878 -94.347687
2400000000 -33.69693 -96.251854 -0.10801604 -30.800936 -0.11044388 -30.526041 -33.770855 -96.030121
2500000000 -33.422112 -104.63828 -0.11070357 -32.045246 -0.11267646 -31.856153 -33.294281 -96.512352
2600000000 -32.628971 -108.28553 -0.10937472 -33.343353 -0.11646861 -33.119221 -32.628731 -98.357651
2700000000 -31.534094 -105.48299 -0.11765892 -34.64296 -0.11615646 -34.341766 -32.315403 -99.755173
2800000000 -30.798315 -98.274635 -0.11589458 -35.906216 -0.11447166 -35.642189 -32.193615 -97.824165
2900000000 -30.857719 -90.225029 -0.11346609 -37.144783 -0.10846455 -36.939243 -31.901165 -94.190445
3000000000 -31.73019 -84.811218 -0.12681203 -38.395115 -0.12858668 -38.200336 -31.898024 -92.910988
3100000000 -33.084484 -90.883827 -0.11443206 -39.616116 -0.1296147 -39.435741 -31.685799 -92.061722
3200000000 -34.319447 -104.91404 -0.12001551 -40.87825 -0.11660954 -40.660957 -31.291649 -94.600494
3300000000 -33.571392 -115.67073 -0.12179351 -42.182346 -0.12977712 -41.900684 -31.192116 -97.453209
3400000000 -31.895658 -117.2845 -0.12665451 -43.517166 -0.12370966 -43.175709 -31.136116 -101.40697
3500000000 -31.367514 -113.65757 -0.13254914 -44.739246 -0.12906958 -44.427868 -30.925293 -103.33748
3600000000 -31.605846 -110.54473 -0.12837258 -46.020626 -0.12784788 -45.640526 -30.840597 -104.30378
3700000000 -32.561443 -113.70267 -0.12608926 -47.26078 -0.12872986 -46.945297 -30.990946 -106.89132
3800000000 -33.059795 -122.57104 -0.13107753 -48.535946 -0.13535257 -48.26849 -30.851179 -107.56001
3900000000 -31.895824 -132.61746 -0.13298231 -49.707188 -0.13952704 -49.521458 -30.951647 -109.11744
4000000000 -30.257734 -131.48805 -0.13429382 -51.055473 -0.13145585 -50.69397 -31.047977 -108.29844
4100000000 -29.138651 -123.49138 -0.13124348 -52.184334 -0.1250381 -51.945427 -31.184334 -105.72704
4200000000 -28.687462 -114.86791 -0.11815844 -53.545147 -0.13382316 -53.163494 -31.127853 -105.32725
4300000000 -29.277954 -108.60023 -0.13242184 -54.831997 -0.11641596 -54.425686 -31.36784 -104.72976
4400000000 -30.731014 -105.84343 -0.12515773 -56.077023 -0.12560534 -55.71796 -31.350485 -105.15421
4500000000 -32.021732 -111.78374 -0.13027216 -57.320335 -0.1251785 -56.980545 -31.550041 -106.07725
4600000000 -32.1856 -122.66394 -0.11441106 -58.636948 -0.13167039 -58.185814 -31.637083 -107.9922
4700000000 -31.034376 -125.7561 -0.1300073 -59.906837 -0.13444094 -59.521282 -31.237022 -109.37433
4800000000 -30.195494 -121.1833 -0.11889505 -61.203823 -0.11936358 -60.736584 -30.852062 -111.3856
4900000000 -29.836878 -113.94853 -0.13580444 -62.465202 -0.12430311 -62.052814 -30.375156 -113.63206
5000000000 -30.580618 -106.68361 -0.1293864 -63.606964 -0.12643383 -63.383438 -30.163179 -115.85693
5100000000 -32.60606 -100.06625 -0.11623994 -64.943947 -0.13727124 -64.513947 -30.202663 -116.70654
5200000000 -34.318275 -102.17538 -0.11991066 -66.23851 -0.11953387 -65.789268 -30.237345 -115.43502
5300000000 -35.854908 -115.38707 -0.12670115 -67.536636 -0.12042961 -66.99968 -30.380867 -113.81969
5400000000 -35.181332 -134.36925 -0.13379432 -68.712242 -0.10607868 -68.312889 -29.920473 -112.23901
5500000000 -33.554008 -131.88965 -0.11236193 -69.989754 -0.11900706 -69.588013 -30.182364 -113.19253
5600000000 -32.663548 -128.58186 -0.11736264 -71.394173 -0.12258852 -70.893242 -30.943222 -115.1347
5700000000 -33.29982 -116.47698 -0.095513754 -72.537926 -0.11781132 -72.134987 -31.785263 -115.12886
5800000000 -35.65316 -103.99427 -0.11188354 -74.073418 -0.11715069 -73.522446 -32.760174 -114.18216
5900000000 -39.777775 -96.135033 -0.1329332 -75.142624 -0.13184649 -74.735603 -32.991749 -110.42778
6000000000 -45.20829 -128.12941 -0.11625962 -76.394188 -0.13124481 -75.94973 -32.521038 -109.63665
6100000000 -39.396358 -171.25067 -0.1176403 -77.729202 -0.11767381 -77.152161 -32.181461 -112.73588
6200000000 -34.915421 -168.20306 -0.10813254 -79.077576 -0.10831248 -78.453194 -32.273968 -112.51312
6300000000 -33.027576 -150.58743 -0.13212642 -80.36377 -0.11007375 -79.785637 -32.523678 -109.48385
6400000000 -32.994019 -130.28436 -0.1208062 -81.497986 -0.095483586 -80.984291 -33.091148 -101.55809
6500000000 -33.943069 -111.85878 -0.110664 -82.893974 -0.10440282 -82.263443 -32.183907 -94.32254
6600000000 -36.856319 -95.061592 -0.1089747 -83.899887 -0.12093556 -83.572655 -31.276455 -90.87632
6700000000 -45.283337 -104.01733 -0.083434448 -85.564491 -0.11735652 -84.791389 -30.531393 -92.981003
6800000000 -41.008156 171.25867 -0.12413769 -86.76757 -0.11647659 -86.110207 -30.92342 -95.934944
6900000000 -35.072159 179.55373 -0.11232527 -88.044456 -0.10497639 -87.405746 -31.761042 -98.357918
7000000000 -31.478006 -155.61348 -0.12541217 -89.200348 -0.078732528 -88.747986 -32.299782 -92.996201
7100000000 -29.913202 -132.8027 -0.065226369 -90.52282 -0.085098535 -90.1558 -31.899462 -87.782608
7200000000 -29.734451 -106.87103 -0.11251282 -92.110626 -0.10798207 -91.457153 -31.60285 -89.310318
7300000000 -30.511419 -83.065269 -0.11348256 -93.106819 -0.11817148 -92.578659 -31.213963 -94.517105
7400000000 -32.873219 -57.74585 -0.092630662 -94.587456 -0.109744 -93.778419 -31.496729 -99.051048
7500000000 -38.195263 -33.807236 -0.14003628 -95.756149 -0.10812962 -95.008743 -32.082535 -94.910332
7600000000 -49.990799 -53.131912 -0.10192668 -97.118439 -0.1030494 -96.377029 -31.880787 -86.107338
7700000000 -40.937332 -123.56572 -0.11206336 -98.28511 -0.11076969 -97.690979 -30.795118 -78.839676
7800000000 -35.130741 -103.20599 -0.081201799 -99.947212 -0.11907995 -99.017342 -29.892429 -77.425438
7900000000 -32.624496 -81.097725 -0.15189199 -101.22288 -0.11291344 -100.33491 -29.666777 -77.650642
8000000000 -32.072392 -56.836224 -0.14365253 -101.93843 -0.10962055 -101.55076 -29.672792 -82.589622
8100000000 -33.462463 -35.663532 -0.096003056 -103.58765 -0.11699565 -102.89395 -30.359688 -76.309837
8200000000 -36.820736 -19.952616 -0.13283257 -104.73881 -0.13321693 -104.04809 -30.405531 -66.61882
8300000000 -43.325809 -52.85371 -0.082145318 -106.26801 -0.1380119 -105.25754 -29.786715 -61.336357
8400000000 -38.358822 -106.8415 -0.12328275 -107.49433 -0.11295277 -106.56815 -28.885902 -62.037743
8500000000 -32.942806 -102.42873 -0.13362934 -108.6772 -0.11401402 -107.88657 -28.703882 -65.765938
8600000000 -30.256216 -91.747879 -0.12759756 -110.07336 -0.10969993 -109.35083 -29.027128 -67.303391
8700000000 -28.859869 -80.522858 -0.11198766 -110.95361 -0.16082023 -110.56245 -29.555761 -64.202522
8800000000 -28.220242 -72.43335 -0.10839157 -112.82755 -0.13731587 -111.6041 -28.516964 -56.766941
8900000000 -27.009783 -66.468117 -0.089817137 -113.80049 -0.11676483 -113.10869 -27.070017 -56.454639
9000000000 -25.725315 -60.090263 -0.11076809 -115.25824 -0.12300339 -114.51113 -26.256487 -59.660137
9100000000 -24.930504 -52.145378 -0.16051857 -116.69339 -0.15242682 -115.93421 -25.937191 -63.159866
9200000000 -25.166454 -40.625172 -0.11577335 -117.63824 -0.17447466 -117.03011 -26.473415 -64.041115
9300000000 -25.946276 -31.324984 -0.17817311 -119.16364 -0.14977419 -118.18227 -26.782309 -60.753708
9400000000 -28.245325 -27.01786 -0.14066325 -120.54585 -0.14557782 -119.59156 -26.139585 -57.068352
9500000000 -30.262589 -44.063049 -0.14954135 -121.83353 -0.13985798 -120.83449 -25.261175 -57.913017
9600000000 -28.193209 -65.10537 -0.16759647 -122.9715 -0.12274402 -122.12119 -24.628105 -61.323448
9700000000 -25.167057 -66.741127 -0.12392327 -124.6028 -0.13167278 -123.65944 -24.709234 -65.950829
9800000000 -23.182667 -54.733059 -0.19469018 -125.57996 -0.18193004 -124.96069 -25.107098 -66.316376
9900000000 -22.324261 -40.123238 -0.17954555 -127.00293 -0.20575213 -126.17735 -25.118599 -63.410221
10000000000 -22.955729 -25.678358 -0.20594919 -128.33946 -0.2308422 -127.38963 -24.433052 -62.209698
10100000000 -25.233261 -16.999743 -0.20782356 -129.47847 -0.24085231 -128.45901 -23.506571 -63.59581
10200000000 -28.986071 -29.960836 -0.19224349 -130.93059 -0.20239544 -129.7596 -22.980879 -66.889526
10300000000 -28.089634 -64.005936 -0.20197347 -132.27228 -0.20446092 -131.16759 -23.074045 -69.535049
10400000000 -24.266628 -69.532082 -0.211466 -133.30063 -0.20900576 -132.41075 -23.35877 -67.913338
10500000000 -22.096704 -59.418694 -0.24964938 -134.61069 -0.20094092 -133.70099 -23.230835 -64.689026
10600000000 -21.267248 -43.687885 -0.23442151 -135.85654 -0.22296864 -135.05453 -22.718645 -62.188744
10700000000 -21.976414 -28.281401 -0.26496771 -137.09752 -0.26394814 -136.18619 -21.980536 -63.49147
10800000000 -24.465458 -18.373617 -0.22965923 -138.59576 -0.26864135 -137.28148 -21.637768 -66.209686
10900000000 -29.184587 -28.137722 -0.20433311 -140.02968 -0.27352819 -138.36987 -21.572006 -67.383934
11000000000 -29.087709 -68.200134 -0.22970836 -141.11543 -0.20527093 -139.68077 -21.617077 -67.447662
11100000000 -24.103653 -81.585136 -0.22482093 -142.37099 -0.22175974 -141.43199 -21.45682 -65.729752
11200000000 -21.441004 -72.933495 -0.23929678 -143.37256 -0.25180221 -142.64218 -20.949121 -65.285347
11300000000 -20.324842 -61.29129 -0.25074869 -144.60303 -0.25214949 -143.89328 -20.479292 -67.243607
11400000000 -20.502787 -51.441242 -0.26523405 -146.2001 -0.25046375 -145.14406 -20.189558 -69.902534
11500000000 -22.099905 -48.193695 -0.26929981 -147.51509 -0.2878373 -146.40823 -20.205009 -72.073563
11600000000 -23.889093 -55.479973 -0.27188098 -148.99181 -0.26029441 -147.42621 -20.302523 -71.591476
11700000000 -23.483253 -71.243004 -0.2650885 -150.08316 -0.25107479 -148.7536 -20.079588 -70.896828
11800000000 -21.457798 -77.729805 -0.25607315 -151.2532 -0.25496012 -150.1622 -19.733706 -71.035133
11900000000 -19.805 -73.948334 -0.27094439 -152.33533 -0.27537706 -151.50482 -19.402134 -72.756477
12000000000 -19.026705 -67.314362 -0.2801815 -153.64127 -0.29039049 -152.84952 -19.304264 -75.262009
12100000000 -19.175219 -61.901814 -0.32244718 -155.17302 -0.3042767 -154.21092 -19.329361 -77.347908
12200000000 -19.929947 -58.825352 -0.33994624 -156.42667 -0.3238225 -155.46069 -19.415676 -77.087303
12300000000 -20.681341 -62.935654 -0.30895174 -157.8531 -0.33982643 -156.57002 -19.269375 -76.387337
12400000000 -20.628103 -70.113724 -0.31402275 -159.07292 -0.32192361 -157.73541 -18.908749 -76.689095
12500000000 -19.888908 -74.366562 -0.31237152 -160.15793 -0.32872802 -159.14938 -18.686981 -78.43541
12600000000 -19.083 -74.124344 -0.33010814 -161.43912 -0.33603534 -160.34393 -18.578512 -80.136757
12700000000 -18.55612 -72.419296 -0.34516293 -162.4734 -0.33247447 -161.59567 -18.555693 -81.372383
12800000000 -18.473166 -70.274414 -0.36062193 -164.10216 -0.3337881 -163.01558 -18.477007 -81.375206
12900000000 -18.631294 -68.459877 -0.37623185 -165.24704 -0.38022888 -164.26915 -18.264843 -81.490479
13000000000 -18.853899 -68.861542 -0.38308012 -166.79666 -0.36960688 -165.47449 -18.090303 -82.684235
13100000000 -18.82041 -71.108353 -0.3568753 -167.90488 -0.39356029 -166.74646 -17.97596 -84.399971
13200000000 -18.737104 -73.124329 -0.37472555 -169.2621 -0.36411476 -167.88065 -17.872965 -85.992584
13300000000 -18.452257 -75.64547 -0.40647277 -170.32681 -0.39504221 -169.28549 -17.895983 -86.555984
13400000000 -18.223516 -77.003937 -0.39993128 -171.65703 -0.38856685 -170.44058 -17.782347 -86.890968
13500000000 -17.972622 -77.567078 -0.41656485 -172.79549 -0.4122223 -171.76192 -17.579926 -87.43174
13600000000 -17.836313 -78.052544 -0.40472552 -174.45566 -0.38874805 -172.92232 -17.422022 -88.771477
13700000000 -17.776711 -78.403053 -0.44392782 -175.6163 -0.42852366 -174.31818 -17.424156 -89.958008
13800000000 -17.819929 -78.800339 -0.43688884 -176.87932 -0.43148285 -175.4127 -17.411308 -90.500061
13900000000 -17.764788 -79.832275 -0.44987217 -178.00227 -0.43165067 -176.64645 -17.286228 -90.57618
14000000000 -17.774984 -80.783981 -0.42902794 -179.21574 -0.42031655 -178.01634 -17.06683 -91.021019
14100000000 -17.741188 -82.428398 -0.45081744 179.42422 -0.45491907 -179.36604 -16.877083 -92.30619
14200000000 -17.563913 -84.256081 -0.45807293 178.17535 -0.4547466 179.41704 -16.761791 -94.253761
14300000000 -17.336828 -85.371521 -0.46110472 176.7859 -0.48574093 178.27904 -16.879398 -95.552559
14400000000 -17.095579 -85.52536 -0.4930014 175.41997 -0.4681266 177.10509 -16.895752 -96.002945
14500000000 -17.040077 -85.940033 -0.50200295 174.31058 -0.48159853 175.84749 -16.836237 -95.82357
14600000000 -17.03203 -86.45372 -0.51319855 173.02098 -0.47449884 174.47383 -16.639244 -96.465515
14700000000 -17.083391 -86.947411 -0.51983839 171.99666 -0.52423823 173.1162 -16.468027 -98.004761
14800000000 -17.152012 -88.684517 -0.50552678 170.65602 -0.5204193 172.0267 -16.472429 -100.08913
14900000000 -17.112122 -90.655258 -0.50870681 169.48871 -0.54333574 170.85231 -16.609255 -101.40204
15000000000 -16.993843 -91.513428 -0.49363562 167.81218 -0.51613408 169.69823 -16.691376 -101.45862
15100000000 -16.821573 -93.605682 -0.59673291 166.67776 -0.52546102 168.18892 -16.663664 -101.61182
15200000000 -16.675686 -94.151733 -0.60314631 165.85396 -0.55343252 167.08078 -16.425623 -102.16463
15300000000 -16.498739 -94.809471 -0.56978989 164.80351 -0.57501721 165.86905 -16.246643 -104.01951
15400000000 -16.443174 -95.245735 -0.53208393 163.24585 -0.56232285 164.78688 -16.279451 -106.03874
15500000000 -16.435644 -95.858131 -0.56412375 161.81506 -0.56681108 163.36844 -16.407078 -107.37978
15600000000 -16.541008 -96.980507 -0.58049077 160.64255 -0.57462716 162.26974 -16.525105 -107.47421
15700000000 -16.582874 -98.507393 -0.58515692 159.50529 -0.57236558 160.99307 -16.479275 -107.30335
15800000000 -16.592888 -100.27734 -0.62964976 158.22023 -0.58112133 159.76085 -16.265205 -107.97845
15900000000 -16.493914 -101.29568 -0.62880296 157.42056 -0.61062199 158.43323 -16.067841 -109.79724
16000000000 -16.390106 -102.84774 -0.58040553 156.18025 -0.61174506 157.48109 -16.068083 -112.02975
16100000000 -16.3398 -103.59887 -0.54873627 154.64099 -0.59456509 156.35208 -16.228207 -113.06567
16200000000 -16.19393 -104.7378 -0.60576206 152.89731 -0.59030962 154.81941 -16.349789 -114.12109
16300000000 -16.262707 -105.8255 -0.66422826 152.10207 -0.6176492 153.60814 -16.405937 -113.61722
16400000000 -16.332611 -106.34341 -0.63316554 151.12723 -0.62693644 152.50726 -16.287361 -114.36734
16500000000 -16.426674 -107.58793 -0.59303844 149.78098 -0.60566384 151.41438 -16.189308 -115.6217
16600000000 -16.477163 -109.39525 -0.63781697 148.37424 -0.59378093 149.9142 -16.138969 -117.34431
16700000000 -16.424788 -111.417 -0.63401347 147.43637 -0.64117193 148.6642 -16.258921 -118.37554
16800000000 -16.366182 -113.49535 -0.6090703 145.9129 -0.61918396 147.61107 -16.457809 -118.45709
16900000000 -16.113222 -114.89137 -0.63725519 144.50801 -0.60315526 146.375 -16.539789 -118.37644
17000000000 -15.928241 -115.5986 -0.70153362 143.04439 -0.60661745 144.9286 -16.538658 -119.15591
17100000000 -15.958537 -114.22536 -0.70342064 142.64206 -0.67426211 143.74722 -16.429276 -119.13716
17200000000 -16.194862 -113.26679 -0.60269189 141.08311 -0.64611858 142.83371 -16.467398 -121.31339
17300000000 -16.56432 -114.02279 -0.61942995 139.72987 -0.6078583 141.53662 -16.628809 -122.68981
17400000000 -16.883524 -116.9744 -0.64512378 138.26324 -0.59290314 140.0218 -16.861673 -123.56804
17500000000 -16.93713 -121.04659 -0.7003749 137.36189 -0.65206391 138.79283 -17.118439 -123.2471
17600000000 -16.589436 -123.60972 -0.65645742 136.15199 -0.64456886 137.80087 -17.145119 -123.91395
17700000000 -16.204491 -123.72504 -0.6954959 134.65086 -0.62557858 136.46602 -17.131262 -124.7939
17800000000 -16.154404 -121.50311 -0.70540315 133.67563 -0.64504755 135.09953 -17.172901 -126.5359
17900000000 -16.394402 -119.12913 -0.63220245 132.59613 -0.67307436 134.06572 -17.223888 -127.64401
18000000000 -17.081575 -118.89368 -0.62997895 130.93051 -0.63487238 132.96225 -17.47051 -128.67691
18100000000 -17.639263 -122.75547 -0.66733837 129.6804 -0.63440949 131.48318 -17.675993 -128.99141
18200000000 -17.733406 -128.90309 -0.72217607 128.66472 -0.63463449 130.12514 -17.852131 -129.46082
18300000000 -17.09341 -131.86821 -0.66457427 127.66838 -0.67294079 129.04137 -17.782953 -130.32785
18400000000 -16.503115 -130.44359 -0.67810434 126.04274 -0.62667477 127.91951 -17.791597 -131.94052
18500000000 -16.488256 -125.97106 -0.66258007 125.02458 -0.65405411 126.67171 -17.912434 -133.62756
18600000000 -17.112156 -122.2681 -0.64959842 123.4831 -0.62750286 125.43436 -18.076403 -134.56615
18700000000 -18.271658 -122.6375 -0.65194482 122.42771 -0.65076047 124.00922 -18.378592 -135.42218
18800000000 -19.28388 -129.95207 -0.69406062 120.94128 -0.64438206 122.81989 -18.462616 -135.85968
18900000000 -19.198448 -139.31017 -0.67957801 120.37556 -0.66831225 121.45058 -18.468174 -136.11421
19000000000 -18.226074 -142.55417 -0.63827753 118.63393 -0.66735584 120.39909 -18.436394 -136.84975
19100000000 -17.482203 -139.29459 -0.65868044 117.28087 -0.64844775 119.08418 -18.373648 -137.88554
19200000000 -17.473545 -133.87782 -0.71011132 115.8549 -0.62148857 117.69596 -18.535046 -139.32338
19300000000 -18.331804 -128.23286 -0.68462187 115.00981 -0.67450821 116.26382 -18.778442 -138.61055
19400000000 -19.940647 -129.5992 -0.63777202 113.55416 -0.6696068 115.39028 -19.094538 -138.31393
19500000000 -21.089611 -139.35948 -0.66346127 112.36718 -0.66075444 114.04836 -19.29969 -138.08711
19600000000 -20.617931 -150.17084 -0.69776511 110.87355 -0.65950263 112.81136 -19.37253 -138.5732
19700000000 -19.318632 -151.59074 -0.73268098 110.06018 -0.66779178 111.47557 -19.574034 -138.41214
19800000000 -18.498072 -145.44249 -0.63358784 108.30885 -0.6574623 110.4164 -19.819408 -138.63445
19900000000 -18.729109 -138.80272 -0.73369694 106.83576 -0.64002442 108.7702 -20.237183 -139.34233
20000000000 -20.043028 -132.27275 -0.73941267 106.10181 -0.68084532 107.41827 -20.689333 -137.3222
20100000000 -22.000118 -135.49905 -0.69283074 105.10859 -0.72084439 106.41227 -20.839361 -137.10065
20200000000 -23.231966 -148.45805 -0.62392324 103.62837 -0.70087683 105.33292 -21.221287 -136.36548
20300000000 -21.986689 -159.13295 -0.71705723 101.6455 -0.65853882 104.0754 -21.279707 -136.59544
20400000000 -20.519403 -158.112 -0.81956339 100.89646 -0.68371159 102.60838 -21.870213 -135.26625
20500000000 -19.751875 -150.67601 -0.73148698 100.10786 -0.70584321 101.63368 -21.900146 -135.84076
20600000000 -20.253355 -141.16353 -0.68770391 98.534637 -0.68344194 100.3552 -22.527153 -134.10622
