!Keysight Technologies,N5222B,MY58421742,A.17.00.05
!Date: Friday, September 20, 2024 13:29:41
!Correction: S11(C  2-Port  ) 
!S21(C  2-Port  ) 
!S12(C  2-Port  ) 
!S22(C  2-Port  ) 
!S2P File: Measurements: S11, S21, S12, S22:
# Hz S  dB   R 50
1000000000 -40.457108 -73.789413 -0.026817918 -5.4642467 -0.037084214 -5.3346963 -40.725277 -72.096504
1100000000 -39.566303 -76.333794 -0.020503936 -5.9624481 -0.027251871 -5.9125409 -39.888805 -74.986595
1200000000 -37.998714 -82.719055 -0.042402789 -6.507586 -0.035083499 -6.3775144 -38.295486 -77.797096
1300000000 -37.140701 -88.726143 -0.033332817 -7.0508804 -0.034402449 -6.9768057 -37.185677 -83.543091
1400000000 -36.529617 -89.114502 -0.029543478 -7.6108413 -0.034906052 -7.4657459 -36.479462 -83.35743
1500000000 -36.281326 -87.425476 -0.033036236 -8.1064472 -0.034338266 -8.0294437 -36.052448 -83.483589
1600000000 -35.931892 -82.091393 -0.030852281 -8.6660519 -0.035252605 -8.517128 -36.345352 -82.28434
1700000000 -35.758675 -82.114708 -0.030433608 -9.1741829 -0.026445992 -9.0080881 -36.140865 -81.889915
1800000000 -35.201797 -87.330505 -0.035496879 -9.6859522 -0.035894901 -9.5206299 -35.55669 -83.924431
1900000000 -34.500214 -92.670998 -0.036332369 -10.195758 -0.03538309 -10.077671 -34.449535 -86.777496
2000000000 -33.58242 -94.228065 -0.033022411 -10.799246 -0.031028781 -10.620592 -33.637638 -90.861107
2100000000 -32.964092 -93.745071 -0.037978243 -11.329477 -0.035103332 -11.134286 -33.05925 -93.509331
2200000000 -32.458118 -92.542046 -0.033625245 -11.844172 -0.032859653 -11.655828 -32.724377 -94.67939
2300000000 -32.328003 -92.18013 -0.038019761 -12.37625 -0.033684202 -12.173437 -32.67041 -96.349747
2400000000 -31.862513 -93.17894 -0.031996667 -12.920134 -0.038675003 -12.658663 -32.348106 -98.030724
2500000000 -31.604116 -96.307632 -0.040177282 -13.471637 -0.035065755 -13.2095 -31.929438 -97.841545
2600000000 -31.285944 -96.962151 -0.033788815 -14.014434 -0.041419253 -13.732465 -31.318226 -98.202293
2700000000 -31.026249 -95.344681 -0.036111802 -14.546909 -0.040316798 -14.251832 -31.020992 -97.82975
2800000000 -30.947735 -92.361954 -0.035477307 -15.057054 -0.035084024 -14.79648 -31.100832 -97.535652
2900000000 -30.989323 -89.902138 -0.032849479 -15.55405 -0.027532427 -15.314171 -31.193098 -95.083092
3000000000 -31.189331 -89.793518 -0.039085589 -16.147884 -0.046440672 -15.852601 -31.320562 -95.250526
3100000000 -31.088806 -93.531334 -0.031768236 -16.632866 -0.040626682 -16.386555 -30.933189 -94.229698
3200000000 -30.713655 -99.908791 -0.036799908 -17.118515 -0.023484228 -16.942413 -30.344398 -95.198082
3300000000 -30.165325 -102.2169 -0.027531385 -17.676128 -0.038273074 -17.419216 -29.816702 -96.721443
3400000000 -29.542263 -102.87131 -0.028384365 -18.273184 -0.028971178 -17.941336 -29.409178 -98.84568
3500000000 -29.201685 -102.31847 -0.035400577 -18.812834 -0.03639058 -18.460491 -29.121143 -99.579094
3600000000 -29.058611 -102.42799 -0.02302645 -19.317867 -0.037762813 -18.956678 -28.851761 -100.78185
3700000000 -28.851313 -103.87565 -0.032265794 -19.847397 -0.033698026 -19.520262 -28.725929 -102.44534
3800000000 -28.687504 -105.5211 -0.026045192 -20.357719 -0.030042345 -20.023861 -28.374527 -103.77053
3900000000 -28.292074 -107.74051 -0.032431137 -20.83497 -0.033791162 -20.588625 -28.173777 -104.65294
4000000000 -27.788298 -106.75243 -0.027020823 -21.422104 -0.025284581 -21.092836 -28.123941 -105.06945
4100000000 -27.596863 -102.97312 -0.035545684 -21.896807 -0.013511988 -21.551714 -28.245588 -104.76641
4200000000 -27.434217 -99.372856 -0.020697962 -22.451571 -0.02716513 -22.097828 -28.284693 -104.83651
4300000000 -27.469721 -98.736916 -0.020382218 -23.04879 -0.019566951 -22.658644 -28.235586 -105.66383
4400000000 -27.650326 -101.04129 -0.021320159 -23.496944 -0.014936491 -23.152454 -28.145201 -106.86704
4500000000 -27.566278 -103.85095 -0.02082229 -24.057278 -0.014774149 -23.702122 -27.950802 -107.42969
4600000000 -27.408188 -106.91908 -0.0077296942 -24.591301 -0.020121107 -24.159275 -27.764303 -107.8789
4700000000 -27.100222 -106.49864 -0.016910532 -25.174128 -0.014285083 -24.733297 -27.517612 -107.33683
4800000000 -26.852943 -105.063 -0.0044308309 -25.701426 -0.0065818331 -25.237057 -27.175442 -106.48724
4900000000 -26.823536 -103.81728 -0.0048239399 -26.199331 -0.0066909795 -25.793179 -26.830904 -106.58572
5000000000 -26.96163 -104.25936 0.0010513607 -26.688213 -0.0052795447 -26.407988 -26.430931 -107.38424
5100000000 -27.374609 -106.2604 0.0022276926 -27.291468 -0.0086410437 -26.856834 -26.173046 -108.62373
5200000000 -27.348259 -108.63601 -0.0038815229 -27.830345 0.00076305133 -27.372059 -26.059975 -109.20515
5300000000 -27.13102 -111.62166 0.010709788 -28.383587 0.0013629412 -27.885628 -26.070396 -109.14268
5400000000 -26.530588 -113.37081 0.0015011267 -28.907225 0.011660458 -28.385754 -25.9795 -107.65215
5500000000 -26.131508 -112.85994 0.0074549695 -29.432655 0.015431136 -28.975142 -25.785473 -108.8186
5600000000 -25.803669 -112.11957 0.010660209 -30.049257 0.0027539113 -29.515635 -25.531425 -111.54645
5700000000 -25.949499 -111.86215 0.026759071 -30.503826 0.011271126 -30.052393 -25.443684 -114.60798
5800000000 -26.300632 -114.1729 0.026384985 -31.183662 0.025096791 -30.628782 -25.392817 -117.90643
5900000000 -26.618639 -116.94659 0.011146678 -31.685783 0.024425523 -31.224592 -25.577345 -118.33922
6000000000 -26.352554 -119.94407 0.014324425 -32.149712 0.014702648 -31.715548 -25.503908 -117.28827
6100000000 -25.677336 -121.49748 0.01993143 -32.726227 0.013691229 -32.19944 -25.184155 -116.80614
6200000000 -24.922567 -121.26669 0.027096596 -33.375969 0.025781335 -32.721245 -25.000454 -117.76503
6300000000 -24.682648 -117.62054 0.018923806 -33.986599 0.027394481 -33.322071 -24.937368 -118.97987
6400000000 -24.899092 -115.34856 0.019357294 -34.470524 0.024183039 -33.843849 -25.053434 -120.98029
6500000000 -25.272795 -114.48589 0.02557341 -35.033821 0.036303569 -34.327671 -25.45347 -120.48585
6600000000 -25.628845 -116.11511 0.010907064 -35.42931 0.030132109 -34.963211 -25.737467 -117.46808
6700000000 -25.42593 -121.19223 0.047440536 -35.990746 0.027583284 -35.522026 -25.58663 -115.12981
6800000000 -24.632555 -125.10489 0.03525506 -36.699577 0.037944116 -36.062107 -25.138922 -115.06359
6900000000 -23.801083 -124.4383 0.038170952 -37.26609 0.040097035 -36.591537 -24.686785 -117.58311
7000000000 -23.255827 -119.82052 0.015723631 -37.796795 0.052478671 -37.070194 -24.530958 -119.6963
7100000000 -23.401611 -113.4141 0.04774522 -38.134949 0.066217318 -37.631355 -24.827553 -121.13133
7200000000 -23.998308 -109.49065 0.058242023 -39.0084 0.062221039 -38.237076 -24.684427 -118.93228
7300000000 -25.018087 -109.66992 0.042917408 -39.429382 0.054922961 -38.850525 -24.398676 -117.04718
7400000000 -25.610813 -116.21439 0.062459368 -39.943287 0.042305287 -39.357807 -23.878256 -117.76372
7500000000 -25.151649 -124.36769 0.045732874 -40.59544 0.041495144 -39.806358 -23.534838 -120.00537
7600000000 -24.041132 -127.33996 0.059396837 -41.147491 0.053074531 -40.46077 -23.544291 -122.51302
7700000000 -23.349234 -125.28947 0.031029705 -41.712551 0.054860082 -40.97773 -23.986525 -122.95607
7800000000 -23.239632 -121.31303 0.071282625 -42.219975 0.050763272 -41.517826 -24.532196 -121.6831
7900000000 -23.731497 -118.64983 0.060269006 -43.062908 0.059851836 -42.144844 -24.339249 -119.18983
8000000000 -24.259045 -120.29459 0.018131975 -43.355141 0.068099923 -42.644772 -24.056423 -117.68613
8100000000 -24.253357 -124.72428 0.06354215 -43.856312 0.058303829 -43.304874 -23.662729 -121.20161
8200000000 -23.630877 -128.72443 0.048516314 -44.551895 0.046226189 -43.780647 -23.530579 -125.40675
8300000000 -22.850567 -127.19036 0.08678779 -45.139996 0.044074256 -44.305462 -23.728989 -127.61277
8400000000 -22.390909 -122.8371 0.058287997 -45.80542 0.048347872 -44.909153 -24.114021 -127.31196
8500000000 -22.273926 -117.9481 0.039245948 -46.342609 0.056032661 -45.430744 -24.080635 -125.05785
8600000000 -22.446709 -113.44359 0.062456816 -46.799477 0.071640648 -46.036541 -23.576193 -124.33403
8700000000 -22.889494 -111.58759 0.057164561 -47.278698 0.068393476 -46.699799 -23.166916 -127.46159
8800000000 -23.340055 -109.33073 0.09736339 -48.087978 0.039867222 -47.177948 -23.143581 -132.34639
8900000000 -24.336264 -107.84395 0.08646147 -48.530262 0.053899389 -47.615185 -23.648275 -133.79166
9000000000 -25.749388 -108.17901 0.079594955 -49.231674 0.071184337 -48.293972 -24.257816 -132.72629
9100000000 -27.236689 -116.08416 0.073530056 -49.958298 0.082231812 -49.094799 -24.460041 -129.68611
9200000000 -27.037323 -128.68417 0.016963555 -50.025375 0.027068298 -49.729698 -23.727726 -127.02476
9300000000 -25.308594 -138.28816 0.055128463 -50.774502 0.028230404 -49.845974 -23.346052 -129.78931
9400000000 -23.216536 -136.61169 0.047910102 -51.389309 0.048125666 -50.507332 -23.15843 -134.32687
9500000000 -22.374893 -126.86679 0.04384619 -52.112587 0.035583194 -51.095615 -23.446478 -137.14748
9600000000 -22.700169 -116.17708 0.0045933649 -52.746132 0.017803034 -51.492619 -23.939659 -134.60074
9700000000 -24.201717 -105.25037 0.087835602 -53.033821 0.058920853 -51.979889 -24.180532 -130.09454
9800000000 -27.427309 -109.00747 0.0029582761 -53.954205 0.05637252 -53.01289 -23.439121 -129.06543
9900000000 -29.177366 -140.01266 0.022081964 -54.066536 0.0096018733 -53.669704 -22.844801 -130.5553
10000000000 -25.146467 -160.05452 0.012391521 -54.651409 -0.0065883142 -54.171379 -22.838211 -133.53563
10100000000 -21.960604 -154.05652 0.0088434732 -55.238758 -0.015346918 -54.524639 -23.247053 -134.7807
10200000000 -20.655464 -139.28601 0.011032037 -56.013287 -0.0034441992 -54.962437 -23.818249 -132.01068
10300000000 -20.894424 -122.26518 0.011169398 -56.606972 0.014104081 -55.496117 -23.777397 -127.2948
10400000000 -22.773357 -108.46749 -0.018302616 -57.077129 -0.00011234656 -56.016518 -23.312521 -126.65581
10500000000 -26.708736 -107.46935 0.00052079448 -57.563744 0.0082213627 -56.413143 -22.865089 -128.90364
10600000000 -28.951216 -149.34258 -0.0058287703 -57.940632 0.0017935272 -57.201698 -22.752205 -134.0981
10700000000 -23.567671 -167.61623 -0.016035119 -58.56395 -0.041294333 -57.81094 -23.237928 -136.93153
10800000000 -20.019316 -157.50908 -0.023728622 -59.225693 -0.043787118 -58.304108 -23.749491 -136.10535
10900000000 -18.506195 -141.55592 0.012247486 -59.944492 -0.057368569 -58.926968 -23.934835 -133.43294
11000000000 -18.279146 -123.86243 -0.056539774 -60.672962 -0.060023874 -59.193844 -23.753302 -132.05873
11100000000 -19.81572 -106.94477 -0.0034055987 -60.930122 -0.0029079677 -59.605347 -23.278624 -134.63219
11200000000 -23.160042 -98.783752 -0.0022415267 -61.350555 0.0041904692 -60.407265 -23.319784 -139.09195
11300000000 -27.695803 -116.34856 -0.0058067376 -61.906281 -0.010344176 -60.898628 -23.73686 -142.27377
11400000000 -25.872799 -153.4138 -0.018613791 -62.555729 0.0022587399 -61.485317 -24.488182 -141.87839
11500000000 -21.776026 -150.48495 -0.034147542 -63.090347 -0.03392604 -62.120995 -24.614609 -138.42609
11600000000 -19.799932 -135.45201 -0.042076573 -64.112228 -0.070589535 -62.675724 -24.31374 -137.94841
11700000000 -19.358379 -117.86578 -0.081699781 -64.417145 -0.098656677 -62.922775 -23.977457 -138.14549
11800000000 -20.758009 -101.44298 -0.037584994 -64.728943 -0.070208848 -63.318485 -23.884235 -142.88988
11900000000 -24.190577 -89.435905 -0.011182368 -65.241318 -0.010768182 -63.885582 -24.257149 -145.56064
12000000000 -30.285759 -107.75174 -0.020764548 -65.923508 0.025582675 -64.85083 -24.677065 -145.0778
12100000000 -27.900644 -156.52145 -0.074343778 -66.576225 -0.008072271 -65.586952 -24.84767 -140.93765
12200000000 -23.020964 -154.00461 -0.11967889 -66.795486 -0.042822879 -65.984398 -24.2649 -139.31067
12300000000 -20.965565 -138.63031 -0.065607935 -67.540878 -0.050416842 -66.43087 -24.138992 -140.87169
12400000000 -20.679354 -121.35059 -0.098270074 -68.15715 -0.0956368 -66.955612 -24.204563 -143.23027
12500000000 -21.999254 -105.44016 -0.06450668 -68.685776 -0.091515131 -67.363548 -24.286333 -144.98299
12600000000 -25.205 -96.500053 -0.063987553 -68.948395 -0.11234121 -67.973343 -24.525215 -145.17087
12700000000 -30.300373 -110.3316 -0.043772999 -69.738182 -0.043919168 -68.262337 -24.490326 -142.3853
12800000000 -28.962908 -151.26555 -0.10595693 -70.208687 -0.041656818 -69.418633 -24.33346 -141.98579
12900000000 -24.476894 -154.10381 -0.096918292 -70.626175 -0.09132532 -69.759605 -24.156347 -143.75021
13000000000 -22.376667 -143.47821 -0.14297645 -71.401169 -0.077465348 -70.123062 -24.308792 -144.29816
13100000000 -22.128372 -130.91377 -0.017119471 -71.725166 -0.061496276 -70.693283 -24.718721 -143.31824
13200000000 -23.364944 -121.46931 -0.15820192 -72.821121 -0.086632013 -71.407425 -24.877317 -142.08018
13300000000 -25.728968 -119.2569 -0.074707977 -72.716118 -0.1174887 -71.692581 -24.743025 -141.21561
13400000000 -27.650879 -130.91908 -0.11182032 -73.518219 -0.090245277 -72.336021 -24.516474 -139.84181
13500000000 -26.987398 -147.03448 -0.089510068 -73.978439 -0.12082856 -72.935081 -24.809689 -140.62289
13600000000 -24.711077 -150.03406 -0.10981993 -75.054504 -0.090456977 -73.390137 -25.194601 -139.83109
13700000000 -23.53463 -143.58974 -0.16311058 -74.955811 -0.10319652 -73.941193 -25.376671 -139.56009
13800000000 -23.093531 -135.66406 -0.10908061 -75.887161 -0.095557153 -74.527779 -25.41868 -137.55034
13900000000 -23.916317 -127.35646 -0.1254175 -76.334763 -0.10292402 -75.040062 -25.379547 -140.05803
14000000000 -24.811632 -125.83277 -0.14934872 -76.774307 -0.11607882 -75.728661 -25.304739 -142.3354
14100000000 -25.825937 -129.24818 -0.12048363 -77.404091 -0.14999659 -76.183327 -25.896553 -145.22762
14200000000 -25.860226 -135.92105 -0.15177216 -77.994736 -0.14162138 -76.759293 -26.506926 -144.83438
14300000000 -25.165298 -139.09772 -0.12708816 -78.486511 -0.14674374 -77.139587 -26.973848 -141.29004
14400000000 -24.469769 -140.25528 -0.18384644 -79.189453 -0.14565384 -77.726822 -26.680422 -140.10347
14500000000 -24.224722 -135.95268 -0.15657802 -79.792282 -0.14456823 -78.242218 -26.235857 -142.54926
14600000000 -24.27132 -131.42168 -0.21194734 -79.918518 -0.15985006 -78.900909 -26.172802 -145.4908
14700000000 -24.276846 -127.80789 -0.15343127 -80.690781 -0.18622898 -79.2341 -26.828451 -148.83015
14800000000 -24.925667 -124.79372 -0.17364827 -81.278198 -0.16261716 -79.8274 -27.689121 -147.88252
14900000000 -25.456167 -121.45604 -0.16439629 -81.515411 -0.19125763 -80.202957 -28.026323 -141.5406
15000000000 -26.060396 -122.41359 -0.1708359 -82.958435 -0.15624446 -80.94249 -27.485828 -142.08603
15100000000 -27.07321 -124.56089 -0.2808533 -82.654861 -0.19556093 -81.538277 -26.867836 -143.10231
15200000000 -27.246037 -130.86333 -0.19617999 -82.949417 -0.20354795 -81.919342 -26.887987 -149.41753
15300000000 -26.877333 -135.73558 -0.17328268 -83.90213 -0.21652016 -82.388725 -27.578617 -151.22548
15400000000 -25.960896 -136.06761 -0.20028107 -84.392097 -0.19572313 -82.960381 -28.395548 -148.98958
15500000000 -25.606075 -132.88129 -0.22883265 -85.005806 -0.21360405 -83.542206 -28.758726 -142.84314
15600000000 -25.85449 -127.43766 -0.21151166 -85.446938 -0.20967427 -83.879692 -27.987726 -139.19383
15700000000 -26.603991 -122.90784 -0.21536718 -86.066025 -0.21296673 -84.509529 -27.525335 -141.70998
15800000000 -27.70999 -120.29504 -0.27555633 -86.380318 -0.21652424 -85.046089 -27.459827 -146.92119
15900000000 -28.470173 -126.30057 -0.19061087 -86.719742 -0.24552554 -85.537567 -28.16448 -152.51256
16000000000 -28.800621 -130.32259 -0.2304412 -87.594643 -0.23406634 -85.906586 -29.338747 -149.46712
16100000000 -28.10318 -136.42792 -0.20526958 -87.932465 -0.22666936 -86.548378 -29.992016 -142.16571
16200000000 -27.408249 -137.98686 -0.26486123 -89.017593 -0.24556772 -87.103439 -30.061415 -137.88704
16300000000 -27.210863 -133.61879 -0.27552408 -88.806152 -0.24514125 -87.540909 -29.157089 -138.72147
16400000000 -27.402882 -125.71404 -0.21925637 -89.406563 -0.23809044 -88.01062 -29.229105 -142.98412
16500000000 -28.295723 -120.55559 -0.23902053 -90.440247 -0.22432016 -88.553741 -29.449642 -146.64122
16600000000 -30.075672 -118.46034 -0.26453409 -90.564301 -0.23603132 -89.238831 -30.456463 -144.57033
16700000000 -31.213818 -129.87091 -0.25067082 -91.11763 -0.26509508 -89.744644 -30.784418 -136.83708
16800000000 -31.047279 -144.9595 -0.2202211 -91.790962 -0.24825378 -90.1381 -30.466093 -127.83385
16900000000 -29.170416 -152.1142 -0.24500978 -92.489586 -0.24149947 -90.699348 -29.856102 -127.11785
17000000000 -27.462446 -145.90161 -0.34586057 -92.920731 -0.25700653 -91.258949 -30.008337 -127.05099
17100000000 -26.352371 -134.92557 -0.24061973 -92.735687 -0.26808593 -91.608063 -30.264786 -133.21327
17200000000 -26.091494 -119.85843 -0.23385407 -94.018494 -0.23468408 -92.133247 -31.179232 -127.75214
17300000000 -27.345373 -108.31567 -0.24942923 -94.434105 -0.22661699 -92.766312 -32.138542 -118.1132
17400000000 -29.755472 -101.31182 -0.28127694 -95.119629 -0.23914908 -93.474983 -31.943787 -106.10775
17500000000 -33.657024 -111.70336 -0.29915574 -95.237747 -0.26998374 -93.948593 -31.223593 -105.58078
17600000000 -32.434818 -138.73553 -0.24289839 -95.99292 -0.26226881 -94.371567 -31.334175 -105.3093
17700000000 -29.075304 -141.85515 -0.29723325 -96.585968 -0.25482863 -94.971794 -31.890747 -107.03603
17800000000 -26.772896 -131.04436 -0.28420186 -96.791336 -0.27226463 -95.409996 -33.005268 -105.03943
17900000000 -25.916731 -112.74087 -0.24460664 -97.479172 -0.26026282 -95.802666 -33.04689 -97.691788
18000000000 -26.770657 -96.388222 -0.26127684 -98.297935 -0.24700165 -96.439911 -33.002956 -87.661072
18100000000 -29.048883 -83.287514 -0.2954554 -98.779976 -0.26414922 -97.037987 -32.176872 -85.002426
18200000000 -34.100014 -84.369072 -0.31219238 -99.032539 -0.25895831 -97.654984 -32.210835 -85.136612
18300000000 -34.112045 -128.32898 -0.233234 -99.585815 -0.2747491 -98.101387 -32.882164 -85.387611
18400000000 -28.973354 -134.23354 -0.2824415 -100.34754 -0.25583673 -98.697716 -33.861233 -85.982018
18500000000 -26.208088 -119.44056 -0.26114818 -100.76007 -0.26368323 -99.124962 -34.637188 -75.210945
18600000000 -25.071447 -98.882301 -0.27677673 -101.43185 -0.24088296 -99.671738 -33.912613 -68.704376
18700000000 -25.569874 -77.388786 -0.27498212 -101.83261 -0.27873078 -100.27872 -33.01368 -65.179024
18800000000 -27.803297 -56.414585 -0.32045108 -102.57954 -0.27547938 -100.74267 -32.848618 -68.489754
18900000000 -31.877085 -40.227467 -0.26655474 -102.60548 -0.29010075 -101.4333 -33.382584 -71.526672
19000000000 -38.335449 -77.10881 -0.2606729 -103.74559 -0.29430899 -101.78465 -33.741787 -78.570404
19100000000 -32.034184 -117.85257 -0.2888957 -104.27602 -0.2888304 -102.43228 -34.324173 -76.453514
19200000000 -27.622293 -105.55473 -0.32573226 -104.62289 -0.27407712 -103.05644 -33.713993 -67.028275
19300000000 -25.606777 -85.906219 -0.28532127 -105.01289 -0.31756797 -103.69305 -32.493282 -67.700478
19400000000 -25.330923 -63.750172 -0.27098075 -105.78755 -0.29050565 -103.9029 -30.983898 -65.741714
19500000000 -26.841465 -42.691536 -0.29116827 -106.3215 -0.28687596 -104.50751 -30.51474 -67.04509
19600000000 -30.406939 -30.244432 -0.32389501 -106.99079 -0.29321381 -105.01291 -30.458288 -67.927444
19700000000 -36.219097 -53.561371 -0.31661364 -107.12382 -0.29457742 -105.65446 -30.06015 -65.940201
19800000000 -31.802456 -98.611061 -0.27932757 -108.15008 -0.29186368 -106.12861 -29.31636 -61.343029
19900000000 -27.410954 -90.870689 -0.35911795 -108.70634 -0.30370757 -106.95895 -28.483793 -55.156139
20000000000 -25.183758 -74.155128 -0.34494403 -108.80939 -0.33702862 -107.36417 -27.665535 -56.461594
20100000000 -24.974184 -53.541573 -0.30426365 -109.25877 -0.34860492 -107.79874 -27.416885 -56.714321
20200000000 -26.135727 -36.937637 -0.25995058 -110.18003 -0.33948466 -108.21439 -26.902792 -57.969345
20300000000 -29.83713 -31.383312 -0.3652547 -111.10573 -0.31109327 -108.74531 -26.987194 -56.72876
