!Keysight Technologies,N5222B,MY58421742,A.17.00.05
!Date: Friday, September 20, 2024 13:38:22
!Correction: S11(C  2-Port  ) 
!S21(C  2-Port  ) 
!S12(C  2-Port  ) 
!S22(C  2-Port  ) 
!S2P File: Measurements: S11, S21, S12, S22:
# Hz S  dB   R 50
1000000000 0.0096478481 0.13758311 -69.026024 -141.24472 -62.681267 116.9413 -0.0092851203 -2.6892509
1100000000 0.0072353105 0.27566659 -68.108055 1.0195944 -73.551933 172.5992 -0.016800608 -2.9387019
1200000000 -0.001259535 0.38639197 -80.289207 7.5256553 -76.362991 -27.943846 -0.011945444 -3.2226675
1300000000 0.0012563232 0.49615791 -81.241096 28.430429 -69.610344 -0.63666254 -0.021536075 -3.4442194
1400000000 -0.0067464611 0.50379115 -71.245293 54.968758 -70.828384 -63.309425 -0.0095416876 -3.7533436
1500000000 -0.0018823177 0.43100214 -79.635918 -22.77655 -78.669952 -146.96213 -0.013027997 -3.8812311
1600000000 0.0074100047 0.25715059 -82.953667 40.97242 -81.539467 59.145199 -0.013465508 -4.1758795
1700000000 0.0095708789 0.20648336 -68.161812 24.348192 -73.085876 -155.29453 -0.00052189251 -4.4481015
1800000000 -0.00068266666 0.43365622 -69.116379 39.927608 -64.830711 86.758316 -0.007360178 -4.7264605
1900000000 -0.018173942 0.62153167 -71.652145 -58.834164 -72.096985 -52.629597 0.00073665217 -4.9957519
2000000000 -0.022606449 0.72226197 -78.318802 179.04561 -72.659576 -171.64955 -5.9020407e-005 -5.1709743
2100000000 -0.015874295 0.63164723 -75.418343 -154.00626 -75.643517 150.72916 -0.0048462264 -5.4860425
2200000000 -0.017164951 0.44179517 -74.208138 -34.946365 -76.069458 126.03536 -0.0076734223 -5.7421579
2300000000 -0.016433178 0.36969033 -78.113991 84.613091 -79.43808 -19.678396 -0.013702847 -6.0241613
2400000000 -0.010156837 0.50156498 -78.244339 57.579391 -75.25576 111.35888 -0.014512598 -6.3091989
2500000000 -0.030045474 0.74034679 -74.822617 55.664268 -79.555733 113.52284 -0.025379879 -6.5398898
2600000000 -0.028355964 0.87805003 -74.25679 41.562206 -72.632942 19.391218 -0.029636784 -6.8456163
2700000000 -0.040244948 0.77960044 -77.126884 176.73422 -79.005135 152.19281 -0.021558447 -7.1442451
2800000000 -0.051304717 0.53832418 -75.817123 101.46162 -76.389679 -70.499245 -0.027004153 -7.4153676
2900000000 -0.049495902 0.20651844 -76.230652 46.130337 -70.50161 -82.943184 -0.020715389 -7.6683698
3000000000 -0.045876868 0.22898705 -85.000519 174.33173 -76.576057 30.37508 -0.025297862 -7.9456615
3100000000 -0.044652976 0.46164945 -81.828415 -26.080553 -84.597832 56.640499 -0.025240058 -8.198884
3200000000 -0.043959178 0.74896902 -78.107193 114.51181 -70.595512 30.945702 -0.023694266 -8.4108181
3300000000 -0.054069802 0.98925012 -76.616241 147.81892 -71.206017 73.430687 -0.025483249 -8.6849318
3400000000 -0.06705384 0.95029813 -83.456879 5.9429021 -81.533501 -159.40735 -0.026855163 -8.9138918
3500000000 -0.073293485 0.79501879 -94.6604 -157.12518 -87.945213 18.509418 -0.022685293 -9.1256847
3600000000 -0.076965481 0.72093445 -72.594894 48.918545 -72.298012 -8.8459711 -0.026466306 -9.4364729
3700000000 -0.064039566 0.83147204 -77.066689 85.196144 -73.024216 95.812561 -0.024226563 -9.7227459
3800000000 -0.061912175 1.0385988 -80.393013 -49.971073 -76.541977 -121.11259 -0.028697826 -9.9200401
3900000000 -0.066338316 1.2073942 -72.699188 48.994415 -81.487877 -23.494192 -0.024720654 -10.233493
4000000000 -0.092615321 1.1729484 -71.66787 -26.367212 -69.87075 57.119652 -0.016117223 -10.482853
4100000000 -0.10949419 0.87657452 -81.125923 140.9832 -75.635574 1.5925546 -0.022538275 -10.700971
4200000000 -0.1339812 0.63215131 -70.006332 -105.33851 -78.075554 -73.082291 -0.0088111972 -10.910272
4300000000 -0.13556808 0.56509823 -87.291992 137.39229 -75.857468 178.00298 -0.009108982 -11.127046
4400000000 -0.11915872 0.63446879 -74.356056 -8.1376104 -74.425804 -116.23809 -0.018753659 -11.476098
4500000000 -0.10935376 0.84039474 -72.06073 -8.2339211 -76.82473 85.513939 -0.010791537 -11.723032
4600000000 -0.11606979 0.95988041 -73.48304 -42.228622 -84.592239 20.760971 -0.0098138377 -11.952042
4700000000 -0.1606185 0.91056645 -78.866867 28.158833 -77.95713 32.765945 -0.012391672 -12.138311
4800000000 -0.20542428 0.9264648 -71.829086 -91.609398 -76.510338 -107.19309 -0.020922432 -12.434025
4900000000 -0.22791536 0.90925878 -66.964394 -41.945068 -70.690964 104.44686 -0.021357877 -12.713164
5000000000 -0.20865212 0.95448834 -75.429214 34.556705 -79.214096 97.649101 -0.02667154 -12.951164
5100000000 -0.17298986 1.0020838 -78.874237 -46.266788 -92.604073 12.61387 -0.033514898 -13.318591
5200000000 -0.14555775 1.0748369 -74.834198 -129.01984 -73.179344 -98.591324 -0.034553524 -13.545275
5300000000 -0.16449818 1.1574086 -75.762978 108.47714 -72.858566 5.8325453 -0.040218562 -13.801382
5400000000 -0.21913031 1.3208734 -69.987312 -157.2925 -72.774933 48.202309 -0.02889639 -14.034997
5500000000 -0.26228943 1.5316236 -70.768646 -39.279125 -71.357368 17.354811 -0.022095425 -14.318078
5600000000 -0.2765229 1.6962144 -79.836411 -98.100517 -79.962463 126.90101 -0.021783741 -14.58508
5700000000 -0.23947731 1.7394984 -68.871834 65.51564 -83.345299 -122.85229 -0.022517977 -14.847265
5800000000 -0.20028974 1.6693558 -71.630997 -155.29567 -74.132011 -128.07542 -0.029294325 -15.118833
5900000000 -0.18134244 1.5785638 -73.920601 -111.962 -73.824753 0.46009216 -0.027861198 -15.357896
6000000000 -0.2155285 1.6997031 -76.745499 -167.80229 -76.10405 -62.811138 -0.035557166 -15.638603
6100000000 -0.26549765 2.0270519 -78.1978 32.337116 -82.845963 -96.203369 -0.026982533 -15.858502
6200000000 -0.31001279 2.3669732 -70.456055 -20.295753 -76.237526 -47.478725 -0.03450134 -16.182512
6300000000 -0.28825858 2.4599681 -73.702385 -175.02466 -72.513954 -84.068207 -0.036947671 -16.491444
6400000000 -0.25221121 2.15043 -72.00071 -87.397285 -71.076439 103.43743 -0.037868045 -16.732372
6500000000 -0.23441522 1.7039148 -73.896645 151.36499 -75.350731 -85.500114 -0.038436815 -16.979401
6600000000 -0.26936069 1.5386848 -78.825157 83.215202 -95.518379 -111.94679 -0.035340291 -17.157511
6700000000 -0.33650467 1.8630534 -72.807793 -151.93279 -68.880089 -112.47581 -0.027153667 -17.440968
6800000000 -0.39232847 2.4719303 -80.398521 69.834831 -71.71225 -17.192343 -0.03781582 -17.680124
6900000000 -0.40163317 2.8586874 -71.45417 -114.88813 -74.858459 -150.70943 -0.035984688 -17.95816
7000000000 -0.3885963 2.725054 -76.857857 -15.00458 -83.753952 130.92723 -0.033675853 -18.221224
7100000000 -0.36921626 2.0904391 -72.614746 -146.48189 -75.202408 -105.03681 -0.04338184 -18.38031
7200000000 -0.38175148 1.4671309 -70.929588 43.822735 -68.675087 -31.854439 -0.045265272 -18.591143
7300000000 -0.43860441 1.5271498 -79.844162 12.492306 -74.333206 -59.425255 -0.048100326 -18.880278
7400000000 -0.4743585 2.2875614 -76.65239 -87.510567 -84.040771 -10.546127 -0.037535124 -19.109894
7500000000 -0.45973012 3.2225618 -68.496025 -42.053822 -89.419815 -174.80714 -0.043390989 -19.40712
7600000000 -0.42050049 3.656435 -75.882339 -81.377846 -74.269279 -80.851387 -0.044967875 -19.64119
7700000000 -0.38379011 3.303009 -80.375046 -13.128608 -81.388748 165.58434 -0.037502222 -19.89097
7800000000 -0.40557975 2.454632 -78.725418 -4.1015944 -73.71151 8.4927988 -0.033771075 -20.087868
7900000000 -0.49685141 1.8927835 -72.20401 -47.402721 -92.183838 -137.03923 -0.027959939 -20.296515
8000000000 -0.59125811 2.2123601 -87.041817 -17.971073 -72.101089 143.82704 -0.024469437 -20.549871
8100000000 -0.61878544 3.1655171 -72.861198 -121.79231 -70.778969 39.749634 -0.028807269 -20.789347
8200000000 -0.58094347 4.0893531 -72.992317 -160.58788 -76.002609 -5.0171328 -0.03208898 -21.046247
8300000000 -0.50263995 4.2871885 -79.166626 2.5125246 -82.386406 153.67995 -0.027810656 -21.343147
8400000000 -0.49856529 3.6783097 -72.044052 71.129051 -72.125824 83.723412 -0.027675187 -21.569687
8500000000 -0.56415558 3.0632069 -80.210869 -99.395012 -77.4953 31.56563 -0.028054772 -21.857393
8600000000 -0.68008566 2.8941987 -82.529922 -157.32239 -70.175964 172.71909 -0.02311467 -22.025951
8700000000 -0.75193435 3.5720766 -73.253975 -153.77583 -71.440514 166.31305 -0.034924056 -22.382349
8800000000 -0.70346022 4.323195 -72.681976 -58.914352 -73.247078 40.301929 -0.034985121 -22.660276
8900000000 -0.57949734 4.7583137 -79.374016 8.8878508 -72.592598 -109.94028 -0.031146366 -22.970259
9000000000 -0.46085054 4.5290565 -82.469643 -172.47469 -78.656525 137.27167 -0.028619654 -23.183971
9100000000 -0.44476771 4.0483346 -79.636963 60.783173 -70.885994 106.99979 -0.032363068 -23.401033
9200000000 -0.54377288 4.1097016 -71.21769 -54.421867 -80.116211 -167.37907 -0.029273998 -23.634613
9300000000 -0.67537242 4.8229275 -74.532181 -80.951836 -75.715385 96.453621 -0.044948518 -23.88549
9400000000 -0.74658728 5.7779369 -73.105492 -121.34605 -72.258667 72.082237 -0.052089285 -24.221157
9500000000 -0.71319014 6.2459898 -68.216187 26.700672 -74.986664 108.07366 -0.051931571 -24.485653
9600000000 -0.58952951 5.8188152 -80.604706 -73.806572 -69.887672 -50.45015 -0.062082853 -24.738424
9700000000 -0.50287503 4.9882092 -70.639069 114.39181 -74.000031 138.17557 -0.051766533 -24.952898
9800000000 -0.50893033 4.7314572 -73.650749 -126.65771 -73.745506 79.412674 -0.045714676 -25.176983
9900000000 -0.60148251 5.3756495 -72.013046 -66.882042 -75.317963 6.5393777 -0.047553319 -25.389551
10000000000 -0.6861341 6.7067752 -82.717743 -4.7083073 -73.020851 -104.17961 -0.049375985 -25.779829
10100000000 -0.73425817 7.6981707 -78.23217 103.77274 -66.544243 -19.554537 -0.04346237 -26.036383
10200000000 -0.68108696 7.5833378 -70.185471 -80.803886 -65.795807 -56.603737 -0.040332735 -26.262543
10300000000 -0.62079298 6.4854746 -71.591682 71.826042 -72.565681 126.02818 -0.034392796 -26.471701
10400000000 -0.59407717 5.5315504 -80.56591 37.542919 -68.694778 -56.092979 -0.032887302 -26.654034
10500000000 -0.62132013 5.5787673 -78.202881 -136.46861 -83.105301 -20.270342 -0.034948587 -26.901283
10600000000 -0.67430925 6.8724899 -77.376358 141.46622 -69.324745 163.23596 -0.035317849 -27.09663
10700000000 -0.72581345 8.5718575 -75.573982 -45.516781 -76.4506 143.94524 -0.042616095 -27.346504
10800000000 -0.75572461 9.4789581 -72.521027 133.58182 -73.102135 -77.264023 -0.051575828 -27.633322
10900000000 -0.74423653 9.0362091 -87.381523 -126.66597 -71.784187 -161.70781 -0.033094663 -27.736593
11000000000 -0.73925674 7.6778865 -74.057327 -162.20953 -76.247726 -101.15394 -0.023290336 -27.979752
11100000000 -0.71975142 6.544857 -71.43325 -173.53004 -88.471901 -140.94511 -0.019915665 -28.174906
11200000000 -0.70288742 6.6381488 -69.441605 -116.10154 -76.919724 -20.210522 -0.018640827 -28.489239
11300000000 -0.66058719 7.8671436 -67.293175 -178.46342 -71.817856 155.61662 -0.033488549 -28.764212
11400000000 -0.61746925 9.2143135 -71.390022 -130.0071 -77.726639 -147.87581 -0.034355223 -28.987074
11500000000 -0.59547949 9.9274073 -81.417152 -97.021019 -75.087173 -106.71548 -0.030228198 -29.25983
11600000000 -0.5990845 9.5216541 -78.895676 88.409386 -70.377701 -90.602287 -0.026062641 -29.470446
11700000000 -0.60898542 8.4585123 -70.82457 -65.220749 -70.545593 -4.2406874 -0.022170097 -29.712532
11800000000 -0.60742003 7.6318231 -83.440056 91.254463 -73.200859 -148.26888 -0.028040443 -29.908281
11900000000 -0.57452106 7.8019791 -68.592445 -95.798973 -85.680458 129.08937 -0.040519815 -30.212254
12000000000 -0.5317024 8.6947517 -70.103355 -93.901634 -77.949142 48.089424 -0.039227944 -30.505039
12100000000 -0.48463956 9.6691189 -81.612099 -75.250572 -70.831619 163.65199 -0.036670685 -30.734346
12200000000 -0.46844923 10.120525 -83.242737 -79.043175 -74.817451 -87.671692 -0.036782939 -31.009178
12300000000 -0.48182499 9.7557392 -69.431877 -133.98109 -72.785667 128.68579 -0.029919839 -31.265028
12400000000 -0.50682282 9.0706987 -69.696831 -46.462292 -72.951294 39.978069 -0.032366719 -31.528973
12500000000 -0.51993406 8.5253658 -72.256676 159.39183 -70.699883 -156.13927 -0.037556794 -31.843241
12600000000 -0.5104149 8.7660789 -79.634499 -74.910271 -70.690086 164.36163 -0.050695233 -32.063862
12700000000 -0.48518717 9.4937401 -110.15613 51.583096 -76.671463 -124.34946 -0.051561158 -32.320671
12800000000 -0.4447749 10.315088 -71.331764 170.40985 -69.12011 165.89005 -0.059191164 -32.558701
12900000000 -0.3968406 10.625747 -76.61821 -171.55728 -77.377846 148.41658 -0.051217228 -32.780602
13000000000 -0.3761147 10.403086 -73.210838 -111.77871 -76.226685 105.70192 -0.049900182 -33.00771
13100000000 -0.40617147 9.9365253 -70.3246 -95.092186 -69.08654 -101.50699 -0.057759155 -33.238529
13200000000 -0.45963258 9.6412926 -68.040024 -130.67787 -69.765495 -109.58192 -0.056072205 -33.486828
13300000000 -0.5033744 9.932313 -68.369034 171.44342 -78.963264 -48.380211 -0.060859635 -33.761654
13400000000 -0.50269049 10.581442 -70.483437 -41.739365 -95.589218 -14.870444 -0.044023506 -33.983677
13500000000 -0.42310864 11.151846 -79.505646 -164.51401 -68.325661 165.12975 -0.036956027 -34.196373
13600000000 -0.33705381 11.303567 -73.813095 -159.49643 -70.826065 18.154106 -0.035545684 -34.403637
13700000000 -0.30298889 10.856182 -75.039986 121.24622 -73.187332 108.46404 -0.026131392 -34.673393
13800000000 -0.37651613 10.325604 -70.265999 157.66806 -73.777939 -32.670773 -0.031697307 -34.854122
13900000000 -0.47909001 10.290629 -92.802391 -104.83536 -65.711227 -103.44791 -0.043072805 -35.05278
14000000000 -0.55260283 10.818213 -70.509491 -133.74699 -66.81633 -133.54048 -0.03102826 -35.348907
14100000000 -0.50521296 11.665552 -71.909706 -22.292295 -63.74139 -74.089279 -0.034288689 -35.537109
14200000000 -0.37882683 12.101922 -67.332962 -148.16768 -71.876816 4.7575169 -0.017458372 -35.763126
14300000000 -0.24749297 11.888593 -72.706284 -102.24026 -77.944771 124.21397 -0.021211684 -35.988571
14400000000 -0.23454882 11.320715 -67.981461 143.19341 -75.652672 88.728287 -0.015326655 -36.166317
14500000000 -0.33150682 11.000242 -71.177635 106.4204 -77.215607 -30.988777 -0.023948822 -36.383663
14600000000 -0.4647623 11.41477 -77.893356 -119.58887 -67.28289 -84.275543 -0.023901971 -36.67651
14700000000 -0.50889719 12.112728 -71.555771 -32.779903 -72.266769 -80.436928 -0.022245292 -36.975658
14800000000 -0.4058145 12.674056 -70.417603 -133.36977 -87.571686 50.557419 -0.02444002 -37.162224
14900000000 -0.25507706 12.504138 -67.694946 -120.23439 -67.99247 -104.22367 -0.016842967 -37.437973
15000000000 -0.13218059 11.983367 -65.423935 -129.77698 -63.684811 -90.603584 -0.025522307 -37.715286
15100000000 -0.16181022 11.471823 -69.434357 -126.4678 -70.255959 -150.15132 -0.034934755 -37.881008
15200000000 -0.26809531 11.754959 -73.636543 -134.48167 -68.034035 177.46834 -0.04397016 -38.139187
15300000000 -0.35776794 12.618785 -69.430542 -137.52945 -71.832932 -58.175926 -0.039696317 -38.363968
15400000000 -0.3371008 13.384201 -70.369102 -120.67677 -67.898651 -105.80898 -0.03430878 -38.624474
15500000000 -0.22190331 13.45404 -67.246628 -158.73608 -66.837105 -178.92351 -0.030710459 -38.87775
15600000000 -0.10969356 12.797034 -71.293663 -130.62303 -69.968933 -152.00073 -0.035921261 -39.163883
15700000000 -0.074176304 12.017434 -65.751457 -132.03432 -76.276985 109.92496 -0.046745233 -39.387367
15800000000 -0.12773912 11.81432 -65.309998 177.26492 -77.735489 -146.8279 -0.051283497 -39.642239
15900000000 -0.20018348 12.533483 -76.073723 -171.01215 -68.020805 -111.049 -0.058392454 -39.865665
16000000000 -0.20654827 13.615017 -71.938705 -118.31128 -68.475288 -99.855461 -0.043231241 -40.21244
16100000000 -0.14623423 14.281722 -70.263641 -159.64084 -69.72567 148.25865 -0.039009057 -40.40564
16200000000 -0.039485767 14.011549 -65.407059 -148.60544 -67.991562 -95.895103 -0.04172634 -40.626419
16300000000 -0.0026966017 13.08182 -67.751862 155.4532 -66.749336 -168.06015 -0.055757023 -40.867008
16400000000 -0.021414327 12.323112 -64.153503 -130.64163 -67.630928 -160.74409 -0.067559667 -41.069614
16500000000 -0.069740064 12.332143 -66.282585 -165.74831 -69.197762 -139.96007 -0.076840855 -41.203606
16600000000 -0.069387853 13.067079 -72.820808 -102.15648 -67.343109 -161.1356 -0.061377078 -41.50423
16700000000 -0.011954269 13.934496 -70.23642 -176.42392 -63.454342 -155.99133 -0.049837336 -41.725376
16800000000 0.066766433 14.333121 -70.909477 -139.92398 -63.41642 -170.71649 -0.042092778 -41.957195
16900000000 0.082319193 13.896914 -66.53022 -138.29024 -68.035194 -131.45422 -0.044916086 -42.130104
17000000000 0.02902451 13.026846 -68.690926 -158.17032 -68.107445 -179.97244 -0.050630283 -42.382496
17100000000 -0.02979525 12.309727 -64.997498 -150.56541 -67.372803 -158.16682 -0.054490499 -42.669285
17200000000 -0.065729879 12.23908 -64.285492 170.2103 -66.933929 177.57735 -0.045904599 -42.885864
17300000000 -0.0062489659 12.775669 -63.93383 -137.33617 -67.147141 -152.76988 -0.0300168 -43.117805
17400000000 0.096523963 13.486996 -63.062046 -163.13326 -65.653175 161.98337 -0.02084622 -43.302376
17500000000 0.15346868 13.714014 -69.581902 -173.82962 -65.324425 -164.12358 -0.033110313 -43.518208
17600000000 0.13221814 13.536318 -66.261993 -179.87473 -67.366776 -179.5538 -0.029968319 -43.694073
17700000000 0.041382838 12.962342 -65.652962 165.67769 -68.59008 -169.73198 -0.042106111 -43.928177
17800000000 -0.032055601 12.441252 -64.375412 -176.75352 -63.602928 176.35216 -0.044204466 -44.163918
17900000000 -0.029540351 12.30389 -65.767296 -151.90251 -64.194664 -175.91365 -0.025793638 -44.386002
18000000000 0.051537409 12.612391 -67.518501 176.04918 -67.471313 179.01082 -0.031589877 -44.58239
18100000000 0.14295484 13.065827 -66.36615 175.37274 -64.502869 173.84973 -0.023370754 -44.819675
18200000000 0.15899283 13.380638 -66.134933 172.36426 -65.802078 -178.87509 -0.041906681 -45.033657
18300000000 0.093869425 13.279264 -66.423515 -153.35159 -65.751312 175.69391 -0.040732242 -45.226673
18400000000 -0.0064462461 12.839435 -70.166061 -138.1321 -71.539444 -164.32248 -0.053527284 -45.580143
18500000000 -0.032417316 12.361554 -67.874695 -140.85596 -68.306824 172.51387 -0.045679096 -45.782803
18600000000 0.0071107461 12.305695 -64.704674 -156.7536 -63.685879 -171.44452 -0.035813726 -46.009308
18700000000 0.1087778 12.582329 -73.530373 176.89264 -67.927086 -166.11642 -0.050025869 -46.218147
18800000000 0.18207009 13.154856 -67.239456 171.91435 -62.444572 -177.63737 -0.054449867 -46.451408
18900000000 0.17013958 13.450171 -61.839375 -172.25684 -68.733353 161.94084 -0.07239268 -46.655384
19000000000 0.078161776 13.423335 -61.629917 168.60231 -62.898117 173.10014 -0.079876944 -46.967152
19100000000 -0.013174954 13.037684 -69.936852 -170.54005 -65.943199 163.85286 -0.074342988 -47.22192
19200000000 -0.018708682 12.553578 -63.000671 -163.10516 -63.321766 175.58253 -0.073305592 -47.455299
19300000000 0.022803035 12.489812 -63.008617 -140.34421 -69.559105 148.12363 -0.066878498 -47.737343
19400000000 0.12576364 12.81746 -65.912613 172.49713 -64.488594 173.32596 -0.077123046 -47.943405
19500000000 0.17387667 13.444416 -62.087734 169.80431 -65.359375 158.2047 -0.082597233 -48.126965
19600000000 0.1492793 13.856251 -72.442245 150.89378 -62.22937 167.79732 -0.085216805 -48.407005
19700000000 0.073040344 13.878722 -66.947556 -166.50842 -65.158783 176.24577 -0.091576993 -48.625889
19800000000 0.00056220684 13.461126 -65.091805 157.16763 -65.258263 173.39223 -0.084198453 -48.879414
19900000000 -0.0078373142 12.940259 -63.389202 164.13799 -63.354843 -178.54724 -0.074525736 -49.039669
20000000000 0.038972478 12.927057 -64.885536 167.02538 -68.009987 154.59305 -0.075568162 -49.206005
20100000000 0.1291803 13.250634 -66.333549 179.04372 -66.463211 175.95944 -0.070520602 -49.457359
20200000000 0.16304769 13.848291 -67.951042 155.06328 -65.126503 -175.79584 -0.077748112 -49.691116
20300000000 0.14236218 14.295306 -64.325676 167.59647 -67.145424 172.0148 -0.07561136 -49.897564
20400000000 0.082671732 14.142189 -65.071968 -175.82336 -63.801556 -166.42232 -0.06704963 -50.102142
20500000000 0.0038920229 13.566366 -65.281456 162.24071 -61.179955 177.57306 -0.052981164 -50.299843
