!Keysight Technologies,N5222B,MY58421742,A.17.00.05
!Date: Friday, September 20, 2024 13:34:16
!Correction: S11(C  2-Port  ) 
!S21(C  2-Port  ) 
!S12(C  2-Port  ) 
!S22(C  2-Port  ) 
!S2P File: Measurements: S11, S21, S12, S22:
# Hz S  dB   R 50
1000000000 -0.051805042 177.94609 -65.890869 80.430893 -62.140301 81.801994 -0.023720033 178.64439
1100000000 -0.05382055 177.72903 -64.547638 87.736473 -63.623001 90.042488 -0.027603285 178.5226
1200000000 -0.055026058 177.32117 -60.848427 89.290535 -64.101105 77.518318 -0.034411062 178.30965
1300000000 -0.055633266 177.01257 -59.242264 104.39812 -62.822674 99.745872 -0.034419149 178.2003
1400000000 -0.042834904 176.83592 -61.536015 80.346619 -61.110458 93.754433 -0.042218767 178.1114
1500000000 -0.054646205 176.80452 -60.541801 91.279121 -59.964508 94.585762 -0.040164217 177.94559
1600000000 -0.072889917 176.69437 -58.72105 99.424515 -60.133018 73.783012 -0.040004063 177.82547
1700000000 -0.067438722 176.4894 -58.655083 83.462669 -61.297249 87.412865 -0.046011075 177.65932
1800000000 -0.067620397 176.14125 -58.463089 89.419205 -59.559891 76.694237 -0.052767873 177.51172
1900000000 -0.060091328 175.71867 -57.010689 80.02758 -57.777435 88.938766 -0.049655356 177.40247
2000000000 -0.065270774 175.38582 -59.043041 77.816696 -59.442085 85.426781 -0.060899276 177.26772
2100000000 -0.072503231 175.36588 -59.13892 91.801651 -59.426155 90.831985 -0.059559606 177.11589
2200000000 -0.081269056 175.3232 -57.782482 81.480804 -58.346954 85.759056 -0.050284073 176.95119
2300000000 -0.093982428 175.16859 -56.615856 80.526184 -57.347446 70.031136 -0.055071674 176.87335
2400000000 -0.1095502 174.85515 -57.422024 83.380875 -56.529968 83.664848 -0.053648364 176.75266
2500000000 -0.092683025 174.38763 -57.131062 86.38517 -56.508495 86.110085 -0.054541089 176.67691
2600000000 -0.084376074 174.1138 -55.345238 89.179527 -55.670872 82.626549 -0.045770917 176.53867
2700000000 -0.085529901 174.07193 -57.186604 84.208366 -55.839249 80.62468 -0.050817281 176.41118
2800000000 -0.089157306 174.19461 -55.626137 78.403275 -55.34219 80.770187 -0.047916587 176.29912
2900000000 -0.10091607 174.27043 -55.272934 81.957153 -55.549267 77.824875 -0.049110249 176.187
3000000000 -0.11753365 174.0222 -55.192142 88.636177 -54.631687 84.634354 -0.047398128 176.09222
3100000000 -0.13515362 173.5533 -55.008083 72.834602 -54.394028 90.729134 -0.043101303 175.93933
3200000000 -0.15072308 172.89156 -54.305679 82.516373 -54.65107 73.440643 -0.051360246 175.80676
3300000000 -0.14420241 172.63799 -54.622074 79.183159 -53.859425 75.772232 -0.056716274 175.63971
3400000000 -0.13712457 172.47809 -53.793701 77.442551 -53.274559 86.120094 -0.06291192 175.50597
3500000000 -0.14332397 172.45375 -54.697659 81.45462 -54.030151 80.141159 -0.060058519 175.36621
3600000000 -0.16113426 172.34943 -52.898659 80.764252 -53.421093 86.361534 -0.05460741 175.25009
3700000000 -0.18733451 172.0506 -53.174381 81.374733 -53.646404 82.060745 -0.060915813 175.1584
3800000000 -0.20447719 171.66972 -53.036919 84.490685 -52.543236 83.64019 -0.059010629 175.02341
3900000000 -0.21115293 171.36722 -53.45438 80.321404 -53.400932 83.964027 -0.060153797 174.93369
4000000000 -0.20312342 171.24159 -52.549442 84.620621 -52.940666 81.089157 -0.061225068 174.75935
4100000000 -0.18018769 171.31032 -51.980911 79.819656 -52.607441 84.636765 -0.068810284 174.66447
4200000000 -0.17829528 171.42963 -52.595795 81.745285 -52.327099 79.421997 -0.075032435 174.47012
4300000000 -0.20487092 171.23071 -51.490543 77.900352 -51.996819 83.61171 -0.079386823 174.35005
4400000000 -0.23073602 170.99007 -51.891426 83.839996 -52.268726 77.804268 -0.081953272 174.17535
4500000000 -0.26507199 170.64201 -51.93964 84.046638 -52.018707 80.170525 -0.07130602 174.12199
4600000000 -0.25423384 170.38922 -51.441231 80.67395 -51.442219 83.812096 -0.082809627 173.94452
4700000000 -0.23792091 170.23621 -51.598701 86.742889 -51.257702 78.996117 -0.077495918 173.77122
4800000000 -0.21683688 170.07106 -50.873657 79.735527 -51.119827 81.077698 -0.076537862 173.61662
4900000000 -0.22132553 169.85097 -51.238075 81.143372 -51.594448 79.587349 -0.077441104 173.52148
5000000000 -0.26956919 169.66376 -51.020699 82.056061 -50.511608 85.350121 -0.063478462 173.42693
5100000000 -0.31010702 169.36304 -50.248192 80.527985 -50.957603 75.383186 -0.068639599 173.38586
5200000000 -0.35032076 169.20697 -50.135201 78.391808 -50.461029 81.153999 -0.071570486 173.25134
5300000000 -0.34371388 168.98108 -50.098343 82.857986 -50.868237 77.021469 -0.076121874 173.08635
5400000000 -0.30170617 168.6284 -51.060516 79.285881 -49.997623 82.14473 -0.074207634 172.94353
5500000000 -0.28503352 168.25911 -50.026707 77.991806 -50.617218 78.738411 -0.083869085 172.78195
5600000000 -0.31076154 167.96924 -50.050316 80.586121 -50.319103 75.187355 -0.084212966 172.65416
5700000000 -0.38947877 167.86292 -49.726898 78.407715 -50.349098 81.424164 -0.089458011 172.58372
5800000000 -0.45299447 167.84518 -49.480103 78.641983 -50.012398 77.824516 -0.089960106 172.43173
5900000000 -0.48152187 167.76524 -49.415691 80.338097 -50.169899 72.76136 -0.095925249 172.30716
6000000000 -0.45039558 167.40834 -49.319164 84.040298 -49.101803 81.93544 -0.083968051 172.17499
6100000000 -0.40276366 166.89616 -48.893299 75.455872 -49.768009 83.266083 -0.09243419 172.05656
6200000000 -0.39059791 166.5132 -49.37727 80.355957 -49.262146 73.574013 -0.096967533 171.99255
6300000000 -0.44308695 166.45764 -48.857033 80.671082 -48.659996 80.513161 -0.098975778 171.87186
6400000000 -0.52133018 166.81802 -49.053013 81.09877 -49.1231 84.076752 -0.094481342 171.76273
6500000000 -0.55767965 167.23428 -49.25708 76.116386 -48.541992 78.345207 -0.08528544 171.6234
6600000000 -0.54099506 167.21518 -48.878788 80.636406 -48.817654 77.047203 -0.099349461 171.48911
6700000000 -0.49299532 166.74081 -47.605316 77.447693 -49.262371 79.824936 -0.10414933 171.34322
6800000000 -0.43823931 165.96603 -48.509903 75.710327 -48.234653 78.828117 -0.099344701 171.20432
6900000000 -0.45207199 165.51091 -48.707882 73.994804 -48.531342 77.031631 -0.096236743 171.13344
7000000000 -0.4878782 165.70264 -48.903374 78.434578 -48.24453 77.19986 -0.089866027 170.97188
7100000000 -0.54274613 166.27364 -48.008492 79.188416 -48.036369 79.760788 -0.090411521 170.83279
7200000000 -0.54716164 166.67564 -47.695663 74.17144 -47.924282 78.979904 -0.097108088 170.68814
7300000000 -0.5473845 166.44647 -47.721931 74.923706 -47.737423 76.523819 -0.097933806 170.54512
7400000000 -0.53661102 165.54538 -47.581707 80.856705 -47.217339 79.849304 -0.09404406 170.40134
7500000000 -0.56496155 164.67519 -47.129826 78.153976 -47.547916 77.470329 -0.093539372 170.3026
7600000000 -0.61956161 164.38661 -47.437214 77.922798 -47.374641 79.586601 -0.10160286 170.17711
7700000000 -0.6509394 164.84506 -47.540234 77.274033 -47.474888 79.419464 -0.10324264 170.05507
7800000000 -0.63821936 165.48906 -47.307987 77.833786 -47.126465 78.894966 -0.11311855 169.86269
7900000000 -0.60240012 165.64996 -46.930828 75.830643 -47.128063 75.298645 -0.12344866 169.70967
8000000000 -0.57642698 165.02226 -47.021568 75.738419 -47.322639 75.573837 -0.12402342 169.60211
8100000000 -0.59667081 164.05423 -46.980774 76.304024 -46.840157 77.16861 -0.13068883 169.49367
8200000000 -0.66799313 163.40517 -46.537579 77.693336 -46.452496 76.332642 -0.12659988 169.3736
8300000000 -0.7319842 163.64505 -46.649216 72.581238 -46.374058 77.314522 -0.1265679 169.24641
8400000000 -0.73408985 164.3154 -46.538383 77.469376 -46.674641 73.640396 -0.12906958 169.12785
8500000000 -0.68439341 164.82272 -46.547554 72.061577 -46.977184 73.8881 -0.13729583 168.94937
8600000000 -0.63271993 164.58095 -46.080681 75.015205 -46.163109 76.404991 -0.12429858 168.76511
8700000000 -0.66647029 163.72272 -46.189251 75.564751 -45.993294 73.36544 -0.12726489 168.7403
8800000000 -0.78202564 163.01501 -46.20026 72.742676 -45.799717 74.897308 -0.1277999 168.62141
8900000000 -0.93899286 162.97357 -45.954151 74.608406 -45.783531 78.099998 -0.12775405 168.53023
9000000000 -1.0427262 163.35387 -45.702679 76.291397 -45.568443 71.01664 -0.13014147 168.43633
9100000000 -1.0026273 163.7858 -45.924767 73.8293 -45.77422 76.308434 -0.13881443 168.30373
9200000000 -0.87775362 163.67372 -45.961864 75.726234 -46.880474 72.021011 -0.13811532 168.11606
9300000000 -0.77149022 162.93063 -45.433372 74.359306 -45.638004 77.76683 -0.12437716 168.01108
9400000000 -0.76592541 162.13702 -45.651165 71.644196 -45.406223 74.753563 -0.11428748 167.92535
9500000000 -0.87527347 162.2404 -45.643154 70.726875 -44.946739 71.97052 -0.11686136 167.82617
9600000000 -1.0369986 162.94269 -45.565132 72.697266 -45.560051 76.31356 -0.1115903 167.70538
9700000000 -1.1131126 163.74724 -44.943348 71.330917 -44.74197 73.051811 -0.11641091 167.53828
9800000000 -1.0676531 163.78557 -45.278759 70.785263 -45.148476 72.18541 -0.11709777 167.36719
9900000000 -0.95409822 162.93733 -44.930225 73.011536 -45.083355 76.054718 -0.11928482 167.24745
10000000000 -0.85932893 161.9113 -44.618587 75.344788 -44.892845 70.650169 -0.12556937 167.17126
10100000000 -0.82391512 161.511 -44.560764 72.776039 -44.750137 73.025322 -0.12367211 167.09784
10200000000 -0.87941796 162.31444 -45.076488 70.60231 -44.73579 72.248421 -0.13421319 166.99069
10300000000 -0.95766318 163.43517 -45.092396 69.843857 -44.9986 76.169937 -0.1369755 166.82899
10400000000 -0.98572671 163.95676 -44.789532 71.554611 -44.466774 71.851219 -0.14135315 166.64783
10500000000 -0.94049311 163.35298 -44.116089 69.817421 -44.999187 75.378876 -0.14380211 166.47647
10600000000 -0.86927187 161.94138 -44.136623 74.188789 -44.845772 71.058189 -0.14053679 166.39693
10700000000 -0.79783273 160.85953 -44.366718 74.00869 -45.181301 73.170685 -0.13782887 166.25957
10800000000 -0.77874315 160.94182 -44.868881 73.259201 -43.811729 71.921104 -0.13497257 166.10594
10900000000 -0.78813934 162.08464 -45.092705 71.062805 -43.572395 70.439919 -0.14460249 165.95793
11000000000 -0.8281706 163.23996 -44.648975 75.685242 -45.024818 69.38588 -0.15750666 165.73695
11100000000 -0.878824 163.52376 -44.181095 70.139786 -44.136745 73.913979 -0.16513111 165.54498
11200000000 -0.92129296 162.59885 -44.533295 69.718506 -44.306164 71.184921 -0.17285463 165.44521
11300000000 -0.93053669 161.20915 -44.140953 70.633911 -43.878448 69.977982 -0.15928504 165.34946
11400000000 -0.91010433 160.44209 -44.178875 69.755165 -44.082104 72.103271 -0.16129196 165.21962
11500000000 -0.89332503 160.86827 -44.26622 71.769699 -44.164452 75.194138 -0.16191071 165.09882
11600000000 -0.89213818 161.87677 -44.348537 74.710922 -43.877285 70.627419 -0.16627997 164.9547
11700000000 -0.90577579 162.72311 -44.603046 74.799301 -43.605511 70.680527 -0.17565186 164.78697
11800000000 -0.97315991 162.69174 -43.662998 69.414719 -44.083347 74.081055 -0.17386785 164.67232
11900000000 -1.0098224 161.68117 -43.477016 70.467346 -44.045765 71.888901 -0.16452238 164.55084
12000000000 -1.003526 160.3873 -43.49968 71.518318 -43.894741 71.940598 -0.15541269 164.45805
12100000000 -0.95894134 159.89018 -43.527481 73.780472 -43.422089 70.612221 -0.16511282 164.31659
12200000000 -0.92026097 160.2868 -43.264587 78.117882 -43.534512 72.127014 -0.16408095 164.22607
12300000000 -0.91211164 161.19867 -43.471912 71.327568 -43.575871 73.074097 -0.1697682 164.09416
12400000000 -0.93629825 161.89894 -43.822277 69.443855 -44.07296 71.739136 -0.17470048 164.04167
12500000000 -0.96063745 161.76178 -43.440411 67.279411 -43.612148 72.031403 -0.17350252 163.96198
12600000000 -0.9690758 160.75241 -43.557175 71.596962 -43.564423 71.468941 -0.16140479 163.86652
12700000000 -0.95837259 159.66386 -43.339977 69.968033 -43.300846 72.992226 -0.15975714 163.78134
12800000000 -0.92551333 159.13992 -43.236828 69.582123 -43.329163 71.213051 -0.15453385 163.61542
12900000000 -0.94765288 159.34998 -43.347351 73.416809 -43.053173 72.560051 -0.16051105 163.46312
13000000000 -0.94679648 160.04619 -43.228291 73.630066 -43.006058 74.755608 -0.16165869 163.35533
13100000000 -0.95428848 160.54631 -42.893806 71.459892 -43.313896 73.171036 -0.15694839 163.23694
13200000000 -0.92829227 160.46938 -43.231449 73.958389 -43.296337 72.329285 -0.16454846 163.086
13300000000 -0.87443596 159.76903 -42.688953 71.870583 -43.329029 71.265938 -0.15558842 162.98907
13400000000 -0.87187135 158.92976 -42.754745 72.144455 -42.914856 70.175186 -0.16070499 162.89796
13500000000 -0.89553714 158.60301 -42.658741 74.392303 -42.666447 73.805527 -0.16881515 162.78836
13600000000 -0.94258142 158.98521 -42.953724 72.281555 -42.66869 73.141708 -0.17947055 162.56001
13700000000 -0.94748449 159.67506 -43.210876 77.219292 -42.635715 72.167465 -0.18435688 162.51315
13800000000 -0.88173306 160.0544 -42.388954 72.878166 -42.40358 72.15419 -0.17716534 162.33745
13900000000 -0.80462605 159.71742 -42.49522 71.27552 -42.406044 74.3759 -0.17532304 162.13637
14000000000 -0.77742159 158.7598 -42.476177 74.725113 -42.14397 73.051559 -0.17661506 162.0116
14100000000 -0.8293041 158.06801 -42.076889 70.578201 -42.388992 73.666656 -0.19763887 161.84782
14200000000 -0.93660498 158.11453 -42.140022 73.343193 -42.091885 72.727608 -0.2048533 161.73167
14300000000 -0.96843451 158.71086 -41.94445 71.4272 -42.500973 73.318176 -0.21284439 161.50113
14400000000 -0.90234905 159.33862 -42.189289 73.085564 -41.858223 71.613785 -0.20613784 161.39674
14500000000 -0.78785539 159.33865 -41.983738 70.530319 -41.594589 72.559273 -0.21377888 161.24565
14600000000 -0.69156051 158.58162 -41.796822 73.573349 -41.691639 71.161522 -0.19916031 161.14565
14700000000 -0.72501534 157.63895 -41.680626 70.969208 -41.928047 74.250031 -0.21201666 161.0224
14800000000 -0.84189385 157.22098 -41.789944 69.519875 -41.622543 74.762115 -0.21320707 160.89804
14900000000 -0.95678902 157.81511 -41.229118 72.164513 -41.61459 74.082275 -0.21475764 160.75548
15000000000 -0.94123024 158.48257 -41.776096 71.196892 -41.476856 69.791237 -0.21096541 160.61736
15100000000 -0.82273895 158.65735 -41.45676 73.855118 -41.503544 71.881538 -0.19852783 160.50677
15200000000 -0.67113495 157.97531 -41.407288 75.309807 -41.620464 73.137627 -0.1889229 160.38481
15300000000 -0.61032528 156.89696 -41.301857 70.985718 -41.375328 73.981354 -0.19402505 160.2381
15400000000 -0.68828106 156.2225 -41.633423 69.928284 -41.378353 71.85762 -0.19249839 160.09489
15500000000 -0.79455787 156.39658 -41.380573 71.660187 -41.570972 70.31144 -0.20439416 159.96959
15600000000 -0.84372997 157.17271 -41.198315 70.691605 -40.696373 71.169304 -0.20925458 159.85028
15700000000 -0.76924026 157.60243 -41.20261 72.876617 -41.090637 73.104408 -0.20367384 159.7764
15800000000 -0.64710063 157.27225 -41.186024 74.705833 -41.047207 72.922478 -0.19556716 159.64088
15900000000 -0.5595299 156.18764 -40.72118 75.304298 -41.084919 72.943642 -0.19299413 159.55727
16000000000 -0.60119087 155.04895 -40.609035 71.729912 -40.85791 75.261696 -0.19919284 159.4203
16100000000 -0.68342799 154.73041 -40.888145 70.650101 -40.345741 72.251511 -0.20795254 159.27643
16200000000 -0.73551822 155.18718 -41.11211 74.553162 -40.597946 69.854744 -0.20107432 159.11156
16300000000 -0.7034319 155.79144 -40.397778 74.663857 -40.76519 75.046036 -0.20397335 158.9734
16400000000 -0.63790095 155.91484 -40.4473 74.465042 -40.497345 76.361168 -0.18630436 158.89273
16500000000 -0.57177526 155.26921 -40.511532 72.497986 -40.355717 74.012405 -0.18725802 158.70642
16600000000 -0.57877296 154.24435 -40.519978 73.751183 -40.625858 72.628311 -0.18666348 158.5699
16700000000 -0.63186955 153.51297 -40.274563 74.012405 -40.213398 75.081093 -0.20272416 158.4386
16800000000 -0.66887206 153.58301 -39.988102 72.389412 -40.082825 75.161148 -0.21216615 158.33499
16900000000 -0.61819118 154.09497 -40.324703 73.85067 -39.895515 74.052849 -0.21441087 158.1815
17000000000 -0.55210102 154.57625 -40.15316 74.483231 -39.943218 74.513802 -0.20818445 158.05225
17100000000 -0.49108073 154.51787 -39.228378 73.111145 -39.438416 75.574097 -0.21372123 158.0184
17200000000 -0.51360583 153.85255 -39.540382 70.7145 -39.276592 73.835373 -0.21442556 157.80934
17300000000 -0.58705389 153.0219 -39.410389 69.487244 -39.348686 72.574409 -0.22219455 157.66631
17400000000 -0.67644548 152.42848 -39.553925 71.476784 -39.487095 72.767616 -0.23365028 157.45045
17500000000 -0.65678024 152.2923 -39.294052 70.997169 -39.570263 74.321938 -0.23622046 157.31242
17600000000 -0.56688452 152.55785 -38.972183 69.701942 -39.082134 71.466255 -0.23185486 157.12827
17700000000 -0.47056907 152.81824 -39.172024 71.462685 -39.188251 69.716629 -0.22605821 156.97438
17800000000 -0.45024541 152.71873 -39.147564 70.891731 -39.03352 72.008453 -0.23733607 156.85193
17900000000 -0.51849347 152.25595 -38.972652 68.357544 -39.008038 73.033577 -0.24671367 156.72009
18000000000 -0.61644882 151.48186 -38.943848 67.246933 -38.94075 69.86618 -0.25191823 156.59491
18100000000 -0.66024274 150.90277 -38.967266 69.01207 -39.004734 69.306412 -0.26153609 156.45897
18200000000 -0.60885739 150.6723 -38.818291 68.894447 -38.876663 69.814957 -0.2602213 156.31778
18300000000 -0.52394938 150.88637 -38.654125 70.063416 -38.787159 71.260406 -0.24890533 156.13486
18400000000 -0.4522073 151.08882 -38.937675 67.884781 -38.547527 69.455803 -0.24618435 156.0513
18500000000 -0.47822583 151.03999 -38.829079 68.916229 -38.685791 69.4953 -0.24280094 155.90195
18600000000 -0.59145093 150.53401 -38.579899 68.942734 -38.500813 67.305954 -0.24692164 155.72719
18700000000 -0.68842727 149.76369 -38.309563 68.124382 -38.594078 69.082939 -0.24732034 155.67632
18800000000 -0.70684195 149.09076 -38.610928 67.154984 -38.279339 69.847527 -0.2415085 155.48676
18900000000 -0.62497294 148.81702 -37.891346 69.169502 -38.377636 70.329102 -0.22843947 155.33116
19000000000 -0.5367431 148.90596 -38.160397 66.805077 -38.17366 68.453278 -0.22490816 155.26199
19100000000 -0.49859086 149.13058 -38.496101 66.281761 -38.320164 68.630539 -0.21356136 155.19991
19200000000 -0.54220617 149.15233 -38.686935 68.540924 -38.195007 66.789223 -0.23083784 155.10846
19300000000 -0.6524986 148.71022 -37.956417 68.537613 -38.405609 68.251907 -0.22908014 154.99757
19400000000 -0.71947551 147.91725 -37.908733 65.481735 -38.067406 67.342514 -0.22932 154.8107
19500000000 -0.72388798 147.30821 -37.725246 66.924751 -38.15741 66.878273 -0.2174402 154.69945
19600000000 -0.64321244 147.05878 -38.087387 65.956154 -38.060005 66.694832 -0.21619067 154.63136
19700000000 -0.5825994 147.34618 -37.775394 67.387146 -37.985367 67.36116 -0.21026736 154.53024
19800000000 -0.5790835 147.67885 -37.899918 64.829544 -37.659924 66.440689 -0.21336612 154.38312
19900000000 -0.65589625 147.65753 -37.956287 64.552765 -37.674019 63.459152 -0.23131014 154.27225
20000000000 -0.75420398 147.09258 -37.722748 66.286102 -37.95961 65.602776 -0.23328863 154.09177
20100000000 -0.78413093 146.16385 -37.517982 65.255737 -37.64077 66.977859 -0.2349412 153.95921
20200000000 -0.75993013 145.71194 -37.422256 62.818909 -37.754108 66.477554 -0.22640865 153.76752
20300000000 -0.67428231 145.7308 -37.820122 64.922287 -37.3853 65.904144 -0.22294411 153.64536
20400000000 -0.61981684 146.25482 -37.69846 66.704437 -37.742069 66.456429 -0.2518321 153.39423
20500000000 -0.63868201 146.64159 -37.244244 66.58593 -37.654121 66.807022 -0.25396377 153.26933
20600000000 -0.71363491 146.45351 -37.341885 63.64854 -37.280334 66.387306 -0.25941938 153.16277
20700000000 -0.81513363 145.71361 -37.628902 63.146095 -37.457806 64.376976 -0.26797056 152.94797
20800000000 -0.84912884 145.00125 -37.189533 64.458992 -37.55669 65.965118 -0.26558435 152.80429
20900000000 -0.8280021 144.76251 -36.916142 65.927032 -36.995068 66.668831 -0.25937128 152.6351
21000000000 -0.74573123 144.97122 -37.16721 65.011307 -36.91716 64.76915 -0.26710033 152.46271
21100000000 -0.71394825 145.39767 -36.895073 66.306992 -36.930603 65.23999 -0.27077881 152.40535
21200000000 -0.73806006 145.53767 -36.737793 64.815849 -36.873268 65.090027 -0.29167014 152.20694
