!Keysight Technologies,N5222B,MY58421742,A.17.00.05
!Date: Friday, September 20, 2024 13:31:11
!Correction: S11(C  2-Port  ) 
!S21(C  2-Port  ) 
!S12(C  2-Port  ) 
!S22(C  2-Port  ) 
!S2P File: Measurements: S11, S21, S12, S22:
# Hz S  dB   R 50
1000000000 -39.030045 -86.237694 -0.0096869702 -1.5194482 -0.0071237041 -1.4610384 -39.091568 -86.134537
1100000000 -37.731194 -88.882339 0.00096958014 -1.6926225 -0.0057079815 -1.6498308 -38.02227 -88.824432
1200000000 -36.668968 -87.567451 -0.022151886 -1.8561825 -0.01265751 -1.7574775 -37.180805 -85.866165
1300000000 -35.600197 -91.122017 -0.0067114611 -1.9838667 -0.0052976869 -1.9160254 -35.468201 -89.767853
1400000000 -34.95953 -93.321167 0.00128893 -2.2074335 -0.0086324839 -2.0434256 -34.832069 -87.936531
1500000000 -34.658367 -90.950722 -0.0074672699 -2.2839921 -0.0053767362 -2.2159326 -34.617443 -89.381409
1600000000 -34.42403 -87.732971 -0.0049682874 -2.4729955 -0.0046244008 -2.3059149 -34.653225 -87.19236
1700000000 -34.138115 -89.35762 0.0027720202 -2.613781 0.0027528766 -2.4366391 -34.373272 -88.672867
1800000000 -33.447742 -91.362732 -0.00057004642 -2.7037945 -0.0025906637 -2.6066813 -33.862625 -88.938705
1900000000 -32.596546 -92.498543 0.0046228436 -2.8984125 -0.00047037352 -2.7468534 -32.794991 -89.512482
2000000000 -31.923096 -93.307442 -0.001083463 -3.0742908 0.00049232319 -2.8852654 -31.890457 -91.546883
2100000000 -31.5963 -94.164536 -0.0023158584 -3.2143295 0.00023969745 -3.0758722 -31.325039 -92.591095
2200000000 -31.17104 -93.502129 0.0029137824 -3.4258521 0.0045752637 -3.2083616 -30.952259 -93.424683
2300000000 -30.684162 -92.490479 -0.00029174465 -3.5326662 0.0067551234 -3.342618 -30.838547 -94.363548
2400000000 -30.213417 -91.894272 0.0073490175 -3.7095778 0.0069835936 -3.4588492 -30.615528 -95.775505
2500000000 -29.875916 -92.598457 0.0060381033 -3.8341613 0.011194701 -3.641001 -30.153069 -95.130341
2600000000 -29.843235 -92.682159 0.0058013108 -4.0076332 0.0053556096 -3.7537994 -29.672552 -94.352425
2700000000 -29.914896 -92.341446 0.010041457 -4.1895871 0.0039768522 -3.9119503 -29.411728 -94.253105
2800000000 -29.99732 -92.026466 0.01404164 -4.3137393 0.0035071676 -4.0934062 -29.555937 -94.032059
2900000000 -29.89558 -92.579582 0.016692802 -4.4671063 0.010216039 -4.2273932 -29.633762 -93.528259
3000000000 -29.60141 -93.224159 0.01472793 -4.6298852 0.011864403 -4.3746262 -29.68775 -93.557266
3100000000 -28.962383 -93.912155 0.01282566 -4.7442045 0.019361934 -4.5426369 -29.423567 -93.244942
3200000000 -28.440489 -95.246254 0.017647834 -4.8633556 0.022951355 -4.7036171 -28.728123 -92.926346
3300000000 -28.209579 -96.345291 0.021745594 -5.0738358 0.016311143 -4.7990456 -28.180328 -92.747047
3400000000 -27.893007 -96.273598 0.017768489 -5.2533059 0.023929212 -4.9319544 -27.719669 -93.419586
3500000000 -27.597994 -96.238251 0.016312174 -5.4346976 0.018263442 -5.0923958 -27.393036 -93.654327
3600000000 -27.213633 -97.246651 0.02158384 -5.5383468 0.019087207 -5.2117896 -27.160471 -94.228775
3700000000 -26.862312 -96.456619 0.02539224 -5.6832461 0.012226319 -5.3805785 -26.954914 -95.394272
3800000000 -26.605173 -96.788994 0.02278089 -5.8947144 0.029876573 -5.5536351 -26.629499 -95.890251
3900000000 -26.449493 -95.921387 0.025166279 -5.9707875 0.028674792 -5.6859441 -26.270802 -96.273216
4000000000 -26.420549 -95.468239 0.020769821 -6.1775813 0.031593047 -5.8496833 -26.149395 -96.550842
4100000000 -26.536301 -94.387894 0.027230877 -6.2975473 0.042087384 -5.9266105 -26.189302 -96.667175
4200000000 -26.431465 -94.184532 0.043534055 -6.4559894 0.035756752 -6.0605917 -26.250704 -96.721039
4300000000 -26.120161 -94.397133 0.036196779 -6.6753926 0.036782555 -6.2725 -26.101614 -97.520432
4400000000 -25.806923 -95.996864 0.04063151 -6.7313733 0.043095287 -6.3547306 -25.92448 -98.236107
4500000000 -25.449463 -96.381218 0.039898515 -6.9541287 0.051678099 -6.5568271 -25.651747 -98.285538
4600000000 -25.325684 -97.083488 0.045103729 -7.0433674 0.044492431 -6.6729884 -25.471684 -98.028183
4700000000 -25.39262 -96.440567 0.048120033 -7.2680736 0.050881471 -6.8597722 -25.362539 -96.787476
4800000000 -25.245647 -96.568054 0.054841164 -7.441824 0.053891722 -6.9887786 -25.178398 -95.713737
4900000000 -25.19895 -97.491058 0.057243247 -7.5498753 0.048026845 -7.1399293 -24.968122 -94.983536
5000000000 -24.949854 -98.438759 0.068095334 -7.7071481 0.063603878 -7.3337355 -24.563301 -95.329643
5100000000 -24.791481 -99.634293 0.067933254 -7.9013586 0.06153864 -7.4867601 -24.270653 -95.99884
5200000000 -24.538054 -100.17368 0.058605202 -8.0168571 0.06751886 -7.5952454 -24.113089 -96.358864
5300000000 -24.354918 -99.682167 0.071283646 -8.1557236 0.062373634 -7.7522082 -24.070253 -96.104546
5400000000 -24.065767 -99.167 0.079303175 -8.3985672 0.077777855 -7.9148412 -23.990438 -95.287933
5500000000 -23.922663 -98.729233 0.078352958 -8.5876837 0.077974141 -8.1239052 -23.78108 -95.890999
5600000000 -23.6623 -98.963837 0.084604077 -8.7599859 0.078843094 -8.2969046 -23.356697 -96.702644
5700000000 -23.463787 -100.19519 0.097608909 -8.8794727 0.085107207 -8.4405737 -23.029903 -98.737961
5800000000 -23.321882 -101.24155 0.096710287 -9.0910311 0.089559756 -8.577734 -22.845228 -100.77641
5900000000 -23.235918 -101.98433 0.086533532 -9.29459 0.10289815 -8.8094215 -22.889559 -101.78362
6000000000 -23.126387 -101.5273 0.083819054 -9.4493628 0.091804333 -8.9743767 -22.85598 -100.86786
6100000000 -22.991314 -100.7225 0.093718439 -9.6091137 0.09369868 -9.0818329 -22.726391 -99.78775
6200000000 -22.810293 -100.02007 0.098648548 -9.8449268 0.099046826 -9.219408 -22.496544 -100.10262
6300000000 -22.830837 -99.478973 0.095006198 -10.068232 0.09322492 -9.5092316 -22.299829 -101.16132
6400000000 -22.83868 -100.32328 0.10006234 -10.280922 0.098949157 -9.6285458 -22.195879 -102.96567
6500000000 -22.734159 -100.70102 0.10828599 -10.410307 0.10719915 -9.7045355 -22.428684 -103.71498
6600000000 -22.662128 -101.25676 0.099680856 -10.582174 0.11221237 -9.9588699 -22.734407 -102.49718
6700000000 -22.322945 -101.21508 0.10222818 -10.657417 0.10577051 -10.185383 -22.683517 -100.34917
6800000000 -22.036478 -100.89188 0.1115499 -10.912165 0.11545166 -10.323228 -22.421801 -99.236954
6900000000 -21.878859 -100.24165 0.11849407 -11.179214 0.11571179 -10.513803 -22.003315 -99.613136
7000000000 -21.833467 -99.256561 0.10720067 -11.375542 0.11984149 -10.688573 -21.670296 -100.9035
7100000000 -22.063509 -98.854652 0.11438528 -11.428884 0.11773783 -10.788077 -21.673939 -101.80069
7200000000 -22.159985 -99.294495 0.12734511 -11.697638 0.12064219 -10.944176 -21.722939 -100.72119
7300000000 -22.133066 -100.24772 0.12460823 -11.832545 0.13707416 -11.202128 -21.661486 -98.655128
7400000000 -21.91354 -101.26293 0.12625802 -11.939748 0.11781844 -11.452219 -21.278185 -97.707397
7500000000 -21.53301 -102.43753 0.11957557 -12.182053 0.11906432 -11.502753 -20.889389 -98.696022
7600000000 -21.180424 -102.3971 0.13803668 -12.481472 0.13254204 -11.720771 -20.655777 -100.60278
7700000000 -20.997223 -102.29311 0.11177444 -12.717949 0.13087556 -11.908072 -20.742664 -102.10387
7800000000 -20.946131 -102.11526 0.12366788 -12.762129 0.11630408 -12.04649 -21.016136 -102.57843
7900000000 -20.878389 -102.04361 0.14191273 -12.989807 0.13923767 -12.208422 -21.18082 -100.08469
8000000000 -20.779203 -102.2371 0.12449907 -13.148769 0.14945938 -12.417407 -20.956682 -98.547005
8100000000 -20.616106 -101.89423 0.13382034 -13.306472 0.14695513 -12.706367 -20.501637 -99.089821
8200000000 -20.380947 -101.76736 0.13549674 -13.516867 0.1232155 -12.808118 -20.170746 -101.05424
8300000000 -20.334871 -100.25291 0.16006978 -13.829176 0.13983628 -12.967828 -20.033367 -102.98029
8400000000 -20.383512 -99.123436 0.1518252 -14.086533 0.14179347 -13.254795 -20.151312 -103.63979
8500000000 -20.377146 -98.549339 0.134891 -14.293382 0.14856842 -13.407035 -20.300234 -102.01568
8600000000 -20.398954 -97.286613 0.13699691 -14.289005 0.14245936 -13.612847 -20.079554 -100.5176
8700000000 -20.418819 -96.837723 0.1630412 -14.546861 0.1603497 -13.717305 -19.586924 -100.67062
8800000000 -20.61272 -96.299469 0.16775432 -14.83296 0.14167772 -14.05527 -19.31459 -103.51947
8900000000 -20.996202 -98.122047 0.18583016 -14.973482 0.13434692 -14.179574 -19.376774 -106.22128
9000000000 -21.342302 -101.10406 0.16710226 -15.302241 0.15815724 -14.325212 -19.614609 -106.91302
9100000000 -21.264795 -105.99704 0.17202544 -15.46244 0.17215432 -14.636204 -19.885889 -105.71572
9200000000 -20.812231 -108.47583 0.10478867 -15.597179 0.14604513 -15.018123 -19.795576 -102.82253
9300000000 -19.870979 -108.32512 0.12393104 -15.652748 0.11356679 -14.922158 -19.326818 -102.77242
9400000000 -19.263882 -104.6772 0.1223141 -15.992328 0.12928835 -15.109253 -18.948391 -104.66505
9500000000 -19.258507 -99.673645 0.13459086 -16.296085 0.12968935 -15.389569 -18.852615 -107.30987
9600000000 -19.836851 -96.821327 0.11531454 -16.653957 0.10895654 -15.597154 -19.183947 -108.03398
9700000000 -20.690134 -97.684135 0.13249283 -16.544214 0.10389508 -15.569919 -19.378855 -106.13119
9800000000 -20.982834 -103.91738 0.11326718 -17.018564 0.13879994 -15.947495 -19.202595 -103.64691
9900000000 -20.347179 -110.93153 0.080573358 -16.842316 0.11372263 -16.355167 -18.782101 -102.3795
10000000000 -19.104544 -111.96426 0.066197433 -17.015144 0.087621488 -16.448421 -18.450727 -104.19138
10100000000 -18.121515 -108.50121 0.074677251 -17.221407 0.083865769 -16.426203 -18.464497 -106.33691
10200000000 -18.002275 -102.20328 0.092125185 -17.676874 0.098508358 -16.597965 -18.753479 -106.87203
10300000000 -18.675287 -97.116852 0.090574443 -17.854528 0.09195336 -16.75338 -18.976091 -104.80035
10400000000 -19.685482 -96.390663 0.079788625 -17.997095 0.081989489 -16.943348 -18.82478 -102.05243
10500000000 -20.280163 -102.543 0.075063996 -17.875938 0.070455462 -17.04044 -18.415348 -101.48384
10600000000 -19.630594 -110.24297 0.053749569 -18.001772 0.077544428 -17.350374 -18.007889 -103.0434
10700000000 -18.192989 -111.53725 0.051880177 -18.182777 0.058007035 -17.489231 -17.921797 -106.01125
10800000000 -17.117962 -106.79519 0.049029276 -18.661749 0.063092127 -17.593889 -18.060858 -106.94831
10900000000 -16.863855 -99.201454 0.093290791 -19.05196 0.081969678 -17.741171 -18.239122 -105.96648
11000000000 -17.288866 -93.083176 0.072117783 -19.483027 0.073527515 -18.130808 -18.237698 -104.91909
11100000000 -18.495764 -91.31073 0.093284711 -19.253006 0.053268868 -18.050089 -17.904173 -104.00043
11200000000 -19.471903 -96.785042 0.095175877 -19.191145 0.074532725 -18.226593 -17.586142 -105.31165
11300000000 -19.285444 -105.99706 0.088051222 -19.260132 0.063669182 -18.378754 -17.517887 -107.89236
11400000000 -18.199951 -109.85708 0.060476806 -19.667459 0.071477175 -18.562994 -17.710823 -109.47978
11500000000 -17.325077 -106.34212 0.041586421 -19.941996 0.041050527 -18.817003 -17.876692 -108.75407
11600000000 -17.01195 -99.816238 0.065061763 -20.543924 0.066527322 -19.118578 -17.7985 -107.61826
11700000000 -17.494364 -93.775841 0.041045912 -20.68346 0.023603285 -19.374792 -17.632042 -107.06441
11800000000 -18.485958 -92.637245 0.058039732 -20.492962 0.0071283197 -19.389757 -17.348938 -107.70376
11900000000 -19.419508 -99.034828 0.085694037 -20.381771 0.032059707 -19.302479 -17.258142 -109.7239
12000000000 -19.105232 -107.935 0.07587146 -20.671774 0.075434424 -19.544313 -17.338564 -110.51534
12100000000 -17.931093 -111.40813 0.01475734 -21.091902 0.063428879 -19.939888 -17.521458 -110.33993
12200000000 -17.003807 -108.29777 -0.040373757 -21.236557 0.017493661 -20.088566 -17.47757 -108.26836
12300000000 -16.746935 -102.23651 0.003678391 -21.456335 0.0092975991 -20.11729 -17.283657 -107.9636
12400000000 -17.17098 -97.304329 -0.0021925771 -21.776402 0.011570615 -20.499489 -17.077232 -108.57623
12500000000 -17.999714 -96.415482 0.037893821 -21.730408 -0.018195517 -20.635283 -16.968485 -109.68439
12600000000 -18.67922 -100.13632 -0.0071434095 -21.730137 -0.015972504 -20.82637 -16.966593 -110.08999
12700000000 -18.497734 -107.85604 0.037676208 -21.715868 0.0017340137 -20.691217 -17.019106 -109.7655
12800000000 -17.70252 -110.52801 -0.029553903 -22.291897 0.034216572 -21.21063 -16.917053 -109.15116
12900000000 -16.807465 -108.14436 -0.031626906 -22.268618 -0.027286256 -21.303711 -16.71804 -108.87959
13000000000 -16.48698 -103.99443 -0.06472449 -22.862474 -0.013540811 -21.436998 -16.625751 -109.35068
13100000000 -16.703968 -100.57595 -0.0036058587 -22.549864 -0.03497155 -21.451323 -16.641418 -110.00839
13200000000 -17.130335 -99.851479 -0.027577756 -23.366638 0.0054595419 -21.767317 -16.64267 -110.42953
13300000000 -17.48937 -102.4914 -0.048281197 -22.812485 -0.055178639 -21.922195 -16.611633 -109.52384
13400000000 -17.464359 -106.90279 -0.041530326 -23.24848 -0.01839984 -22.015442 -16.531443 -109.05486
13500000000 -16.984003 -108.7534 -0.046909824 -23.181854 -0.050408199 -22.299616 -16.432367 -109.36259
13600000000 -16.439341 -108.02575 -0.034235988 -23.958282 -0.019139746 -22.379032 -16.41791 -109.83614
13700000000 -16.210024 -105.7702 -0.10802852 -23.920979 -0.067306742 -22.59322 -16.481302 -109.65759
13800000000 -16.271336 -103.04512 -0.066207685 -24.045639 -0.05205968 -22.587059 -16.468039 -109.5121
13900000000 -16.555092 -102.01298 -0.080403782 -24.109922 -0.053618487 -22.723589 -16.31168 -109.25491
14000000000 -16.703938 -102.78826 -0.056942087 -24.320797 -0.042368807 -23.068085 -16.072351 -109.39349
14100000000 -16.808296 -104.62848 -0.072593518 -24.474567 -0.076387428 -23.326796 -15.963499 -110.57858
14200000000 -16.566607 -106.07811 -0.077971861 -24.748655 -0.076995522 -23.484241 -15.983113 -111.67548
14300000000 -16.279806 -106.26868 -0.085599601 -24.948118 -0.10866176 -23.418003 -16.140125 -111.58208
14400000000 -15.951722 -105.48978 -0.12045036 -25.280563 -0.082295425 -23.575855 -16.126299 -110.88406
14500000000 -15.905874 -104.21349 -0.1090368 -25.284698 -0.093197927 -23.761219 -15.983169 -110.29517
14600000000 -15.972361 -103.36261 -0.15199198 -25.503031 -0.086942576 -24.120819 -15.741227 -110.64149
14700000000 -16.086227 -102.54135 -0.12066647 -25.403189 -0.14267014 -24.288996 -15.584805 -111.69793
14800000000 -16.198236 -103.46355 -0.11693874 -25.704742 -0.13283044 -24.305882 -15.690069 -112.87585
14900000000 -16.233921 -104.63292 -0.12303454 -25.727613 -0.14944677 -24.338598 -15.835806 -112.86105
15000000000 -16.090708 -104.96493 -0.084086545 -26.4543 -0.11391038 -24.430096 -15.883827 -111.66725
15100000000 -16.017281 -106.55347 -0.23047532 -26.411009 -0.12853841 -24.952333 -15.775959 -111.0585
15200000000 -15.767528 -106.35847 -0.21169755 -25.984636 -0.16478291 -24.910408 -15.434587 -111.38301
15300000000 -15.55695 -106.14054 -0.15744761 -26.014334 -0.18344733 -24.980221 -15.272543 -112.70444
15400000000 -15.454072 -105.46635 -0.13800843 -26.589787 -0.16668585 -24.974047 -15.35012 -113.70776
15500000000 -15.430575 -105.03929 -0.17082244 -26.886295 -0.16632596 -25.299952 -15.479864 -114.00201
15600000000 -15.549313 -105.38133 -0.18546113 -26.980125 -0.17436309 -25.34836 -15.553016 -112.87962
15700000000 -15.597013 -105.7901 -0.18892425 -27.037146 -0.17058201 -25.564434 -15.427875 -111.97469
15800000000 -15.544821 -106.67152 -0.23826736 -27.25441 -0.17914332 -25.72662 -15.130904 -112.01359
15900000000 -15.41134 -106.9356 -0.2380311 -26.841494 -0.216832 -25.886761 -14.891588 -113.12007
16000000000 -15.220261 -107.39143 -0.17018114 -27.018679 -0.2203728 -25.771444 -14.88978 -114.78619
16100000000 -15.118201 -107.41911 -0.14101861 -27.584927 -0.18930359 -25.838516 -15.013509 -114.91777
16200000000 -14.939476 -107.34725 -0.21047467 -28.248686 -0.18926601 -26.267771 -15.107737 -114.9958
16300000000 -14.951798 -107.54996 -0.27501467 -27.918446 -0.22178072 -26.381119 -15.085605 -113.53091
16400000000 -15.009478 -107.18544 -0.24647695 -27.773365 -0.22001551 -26.422197 -14.868919 -113.43783
16500000000 -14.988981 -107.46863 -0.18675616 -27.970768 -0.21007472 -26.355438 -14.695838 -113.84782
16600000000 -14.938941 -108.54073 -0.24067774 -28.429537 -0.18937904 -26.790861 -14.576542 -114.99424
16700000000 -14.824025 -109.17685 -0.23477314 -28.18582 -0.24369343 -26.946199 -14.663158 -115.21846
16800000000 -14.665844 -109.89497 -0.21095046 -28.65288 -0.21789689 -26.90723 -14.802711 -114.82606
16900000000 -14.396688 -109.98071 -0.22822174 -28.997517 -0.20269758 -27.107862 -14.815062 -113.92244
17000000000 -14.222183 -109.84341 -0.29557592 -29.429823 -0.1954667 -27.475473 -14.689575 -113.84479
17100000000 -14.2443 -108.28656 -0.31440094 -28.680565 -0.26989862 -27.626991 -14.510069 -113.02782
17200000000 -14.384464 -107.40043 -0.20653579 -29.015064 -0.25520965 -27.350756 -14.437233 -114.57819
17300000000 -14.541826 -107.66208 -0.20370232 -29.365726 -0.20578308 -27.520199 -14.453148 -115.28122
17400000000 -14.560877 -109.15845 -0.23780388 -29.74601 -0.18974869 -27.948248 -14.565914 -115.89166
17500000000 -14.498361 -111.10756 -0.3003273 -29.620853 -0.24777031 -28.183702 -14.737303 -114.99902
17600000000 -14.1856 -111.76973 -0.26379436 -29.745003 -0.2577267 -28.005735 -14.647228 -114.74396
17700000000 -13.902112 -111.04732 -0.29357108 -30.12903 -0.22457995 -28.221531 -14.506 -114.81745
17800000000 -13.873178 -109.43105 -0.30959022 -30.033028 -0.24232081 -28.492331 -14.396484 -115.55757
17900000000 -13.996001 -107.67458 -0.24279408 -29.951422 -0.28332061 -28.557743 -14.288438 -116.21276
18000000000 -14.284288 -107.85564 -0.2186479 -30.506945 -0.23962611 -28.450602 -14.369746 -116.57837
18100000000 -14.423125 -109.97125 -0.26840371 -30.719097 -0.24119216 -28.881021 -14.451402 -116.60711
18200000000 -14.271202 -112.71448 -0.32372713 -30.678799 -0.23936243 -29.129692 -14.469836 -116.38921
18300000000 -13.857741 -113.11418 -0.29472369 -30.552147 -0.29393891 -29.132618 -14.278913 -116.07237
18400000000 -13.536559 -111.70381 -0.29383504 -31.13763 -0.25592569 -29.102781 -14.111454 -116.54949
18500000000 -13.50789 -109.20872 -0.28137416 -31.069107 -0.27770907 -29.314753 -14.019296 -117.39799
18600000000 -13.78814 -107.59945 -0.24763905 -31.38427 -0.26603594 -29.384287 -13.989304 -117.7657
18700000000 -14.154201 -108.70966 -0.25964966 -31.353758 -0.26957083 -29.709919 -14.048038 -118.14494
18800000000 -14.297478 -112.12072 -0.30302304 -31.745508 -0.26347613 -29.823338 -14.05818 -117.97921
18900000000 -14.076365 -115.29865 -0.3279773 -31.288612 -0.290106 -30.176586 -14.000812 -117.44863
19000000000 -13.60505 -115.78796 -0.27537844 -31.852707 -0.29503065 -30.017931 -13.84119 -117.49242
19100000000 -13.303005 -113.7905 -0.28553331 -32.142536 -0.2850244 -30.162443 -13.660466 -117.52705
19200000000 -13.226679 -111.38351 -0.31592625 -32.658997 -0.24173784 -30.43783 -13.552938 -117.96955
19300000000 -13.582545 -109.90584 -0.3323082 -32.254021 -0.28062302 -30.917637 -13.614217 -117.99509
19400000000 -13.949903 -111.58201 -0.25932485 -32.398792 -0.30135489 -30.754705 -13.678729 -118.14096
19500000000 -14.016322 -114.93749 -0.29347581 -32.609123 -0.28697056 -30.933111 -13.70262 -117.98413
19600000000 -13.692701 -117.38155 -0.32480267 -32.988052 -0.28693375 -31.019278 -13.613581 -117.84421
19700000000 -13.237946 -117.42635 -0.39686388 -32.949413 -0.29570645 -31.348543 -13.553866 -117.92341
19800000000 -12.975197 -114.64918 -0.28243595 -33.29892 -0.31009477 -31.123554 -13.446877 -118.2107
19900000000 -12.96623 -112.41357 -0.33500287 -33.924061 -0.25359601 -31.517263 -13.417379 -118.68866
20000000000 -13.428879 -111.57339 -0.37641478 -33.587879 -0.27923399 -31.986801 -13.592781 -118.92857
20100000000 -13.758605 -113.33652 -0.35633519 -33.289688 -0.33953729 -32.057877 -13.574466 -118.48582
20200000000 -13.761348 -117.03564 -0.28644985 -33.452354 -0.33771965 -31.862679 -13.580008 -118.82383
20300000000 -13.326875 -118.63738 -0.34392682 -34.457493 -0.28984615 -31.919718 -13.467375 -118.56008
20400000000 -12.910331 -118.29127 -0.45673525 -34.47879 -0.28464046 -32.445953 -13.449294 -119.40863
