freq S11 AngleS11 S21 AngleS21 S12 AngleS12 S22 AngleS22
110000000000 -17.94491 -84.733795 -25.594858 -163.1731 -25.618685 -0.2113144 -14.499783 -76.600906
110100000000 -18.025047 -94.379829 -25.56538 -173.50447 -25.637749 -11.445682 -14.877585 -87.522423
110200000000 -18.23148 -102.64052 -25.677496 176.55589 -25.621227 -22.719213 -15.100843 -99.628212
110300000000 -18.273407 -111.79408 -25.588223 166.11302 -25.583138 -33.212017 -15.228639 -110.86269
110400000000 -18.463535 -121.57922 -25.530106 154.90179 -25.604565 -43.099487 -15.46489 -122.28842
110500000000 -18.572359 -131.42503 -25.499466 143.55403 -25.621264 -53.687923 -15.439093 -134.37878
110600000000 -18.740633 -141.64087 -25.479811 132.90044 -25.559563 -64.89579 -15.35419 -145.44571
110700000000 -18.960522 -151.35278 -25.489399 122.82862 -25.56164 -76.307816 -15.368771 -156.96034
110800000000 -19.064079 -161.26744 -25.445248 112.42173 -25.545237 -87.640793 -15.165833 -168.03183
110900000000 -19.169479 -171.23145 -25.383636 102.73313 -25.566086 -98.589584 -14.927703 -178.74098
111000000000 -19.268774 178.71912 -25.443556 92.085724 -25.52335 -108.99216 -14.815876 171.65125
111100000000 -19.208261 167.77925 -25.372892 81.009239 -25.504848 -119.47102 -14.4791 161.28233
111200000000 -19.173143 157.60028 -25.378778 70.102402 -25.480503 -129.72598 -14.235034 152.02969
111300000000 -19.059151 147.60242 -25.355808 59.151802 -25.432302 -140.62103 -14.053076 143.26892
111400000000 -18.938118 137.45714 -25.329731 48.625168 -25.504427 -150.4751 -13.751011 134.618
111500000000 -18.819172 127.60223 -25.309858 38.236488 -25.463711 -162.70334 -13.563148 126.07703
111600000000 -18.789011 118.58684 -25.324711 29.268414 -25.470455 -173.46255 -13.320885 117.48746
111700000000 -18.610535 108.79644 -25.296183 18.209862 -25.496614 176.70074 -13.143367 110.04257
111800000000 -18.516718 100.29342 -25.297861 7.1396408 -25.489294 165.14804 -12.978563 101.59008
111900000000 -18.428577 91.724564 -25.367815 -2.5940363 -25.463694 155.06078 -12.798433 93.598305
112000000000 -18.270004 82.451569 -25.262972 -14.831206 -25.49663 146.75684 -12.703396 87.634972
112100000000 -18.173433 73.485504 -25.338829 -24.77025 -25.462578 136.14874 -12.575398 79.28038
112200000000 -18.01613 64.511772 -25.311432 -34.527843 -25.418095 125.1544 -12.419438 70.517143
112300000000 -17.884125 56.26862 -25.295559 -45.341934 -25.426918 114.9974 -12.5017 65.236061
112400000000 -17.706139 47.653194 -25.316395 -55.3521 -25.371111 104.08401 -12.385313 57.084671
112500000000 -17.578457 39.82148 -25.350134 -65.406784 -25.374641 93.573952 -12.344799 48.792068
112600000000 -17.524824 31.803577 -25.312599 -75.815681 -25.405867 83.589294 -12.457653 43.054237
112700000000 -17.476736 23.806417 -25.29887 -86.142487 -25.384485 73.723869 -12.446539 34.753716
112800000000 -17.426317 16.390141 -25.323702 -96.726097 -25.391539 63.942265 -12.579598 26.839102
112900000000 -17.369888 9.1240702 -25.293837 -107.75295 -25.399761 53.927567 -12.696709 20.043438
113000000000 -17.360975 0.96265018 -25.351393 -117.45213 -25.396196 43.876602 -12.79633 11.940909
113100000000 -17.400745 -6.8260174 -25.28083 -128.06088 -25.344547 33.176834 -12.924719 3.5522373
113200000000 -17.385832 -14.7305 -25.335842 -138.59294 -25.315804 22.993551 -13.002149 -3.6518888
113300000000 -17.404198 -22.169996 -25.388021 -148.41379 -25.31147 12.106439 -13.375854 -11.811182
113400000000 -17.415245 -30.238901 -25.376682 -158.27275 -25.306692 1.6342181 -13.378361 -20.710442
113500000000 -17.550289 -37.792126 -25.322222 -168.8544 -25.190203 -9.2023783 -13.680637 -28.807024
113600000000 -17.670803 -46.264599 -25.538458 -178.70038 -25.356482 -18.146896 -14.040554 -37.284668
113700000000 -17.743299 -53.146046 -25.400547 170.71927 -25.305965 -28.687908 -14.187823 -46.571587
113800000000 -17.877451 -60.79533 -25.338491 160.00522 -25.280712 -38.613159 -14.440351 -55.561882
113900000000 -17.969343 -68.493675 -25.485853 149.88387 -25.389957 -48.254265 -14.698092 -64.62677
114000000000 -18.111698 -76.972557 -25.379187 139.37726 -25.372427 -58.516212 -14.932921 -74.575455
114100000000 -18.259008 -84.864227 -25.323023 129.70827 -25.317974 -69.339661 -14.942783 -84.232071
114200000000 -18.453875 -92.453247 -25.622805 120.72874 -25.435497 -79.427155 -15.437572 -94.543404
114300000000 -18.594988 -100.32825 -25.478359 110.7392 -25.383984 -89.705254 -15.477321 -104.06882
114400000000 -18.750751 -108.90631 -25.32266 100.34514 -25.339268 -99.496025 -15.414379 -115.25836
114500000000 -19.00001 -117.77245 -25.466026 90.430252 -25.459345 -109.9472 -15.604562 -126.37701
114600000000 -19.225365 -126.7527 -25.32966 79.599831 -25.385786 -119.9854 -15.666287 -137.11394
114700000000 -19.381834 -135.68666 -25.414101 69.422066 -25.49893 -129.41408 -15.955084 -144.77859
114800000000 -19.538586 -144.06474 -25.489822 59.866734 -25.456903 -138.88492 -15.653577 -154.18097
114900000000 -19.662416 -152.84332 -25.489843 50.835365 -25.415075 -149.16757 -15.445559 -164.44762
115000000000 -19.791876 -161.93326 -25.423182 41.507813 -25.441599 -160.15453 -15.30932 -174.45906
115100000000 -19.922411 -171.57069 -25.46664 33.181244 -25.502697 -171.08289 -15.15983 176.29938
115200000000 -20.072969 179.11447 -25.431618 22.989275 -25.474003 178.72151 -14.957204 166.84253
115300000000 -20.215057 169.87318 -25.375519 12.863617 -25.476871 169.28433 -14.775076 157.36728
115400000000 -20.313789 159.92285 -25.377228 2.1941898 -25.540567 160.1548 -14.595906 149.12654
115500000000 -20.376423 150.40532 -25.474901 -7.4561634 -25.447029 150.67563 -14.418272 140.56067
115600000000 -20.368423 140.71283 -25.434376 -17.131426 -25.547586 141.23206 -14.287077 132.19218
115700000000 -20.357634 131.19637 -25.417057 -26.349501 -25.544823 131.00694 -14.0732 123.92523
115800000000 -20.275789 122.30018 -25.392315 -34.868622 -25.50469 119.65105 -13.944709 115.71808
115900000000 -20.210463 113.47376 -25.42136 -43.305367 -25.488033 109.53137 -13.792294 108.06544
116000000000 -20.166113 104.57807 -25.405787 -52.772762 -25.501919 99.49234 -13.711232 100.60037
116100000000 -20.079922 95.74884 -25.410309 -62.749794 -25.421303 89.732437 -13.535845 92.404366
116200000000 -20.03261 86.912483 -25.390768 -72.992798 -25.414831 81.019386 -13.549027 85.976219
116300000000 -20.014858 78.524406 -25.327658 -83.016853 -25.448963 72.115013 -13.401688 78.27401
116400000000 -19.962389 70.214142 -25.325474 -92.435249 -25.336105 62.010975 -13.36565 70.441231
116500000000 -19.822515 61.53635 -25.273203 -101.56665 -25.382078 51.953152 -13.413046 64.184982
116600000000 -19.700407 52.848682 -25.22176 -110.91039 -25.381653 41.630074 -13.342117 56.456478
116700000000 -19.544312 44.696808 -25.294895 -119.1214 -25.356792 30.764616 -13.320513 48.510227
116800000000 -19.428638 37.186275 -25.217312 -129.37897 -25.338121 21.543192 -13.421108 42.634293
116900000000 -19.332403 29.852623 -25.229771 -139.22441 -25.351728 12.109309 -13.441355 34.419559
117000000000 -19.140045 22.470196 -25.30587 -147.77301 -25.232939 2.3839335 -13.409483 26.282108
117100000000 -19.136858 14.854555 -25.160837 -158.7527 -25.277727 -7.6958518 -13.628384 20.395723
117200000000 -18.978418 7.5273409 -25.109268 -167.58057 -25.254898 -17.116781 -13.659544 12.437543
117300000000 -18.916548 0.65333706 -25.152199 -177.23404 -25.171734 -27.771315 -13.713497 4.366859
117400000000 -18.84602 -6.3712511 -25.062243 173.35129 -25.14032 -37.885155 -13.952918 -2.0947297
117500000000 -18.805296 -13.934033 -25.015594 164.0649 -25.150961 -47.840126 -14.001205 -10.311003
117600000000 -18.937021 -20.624777 -25.088102 155.21407 -25.126102 -58.441879 -14.144631 -18.768925
117700000000 -18.960693 -28.46928 -25.068893 144.91051 -25.176159 -67.307732 -14.359109 -25.131821
117800000000 -18.957565 -35.907032 -25.078161 135.35623 -25.200108 -76.688339 -14.422523 -34.305767
117900000000 -18.868458 -41.828869 -25.076199 125.91735 -25.14904 -86.485847 -14.580494 -42.615234
118000000000 -18.749987 -49.312244 -25.018415 116.64835 -25.102089 -96.548874 -14.697511 -50.962402
118100000000 -18.681068 -57.143734 -25.008638 106.33242 -25.147202 -105.7121 -14.874006 -59.399227
118200000000 -18.727859 -64.263321 -25.001385 97.351036 -25.140814 -116.05259 -14.992995 -67.8731
118300000000 -18.854136 -70.77565 -24.978914 87.739296 -25.161022 -125.61221 -14.996505 -77.652512
118400000000 -18.964935 -77.278526 -24.970421 78.288445 -25.235016 -134.91689 -15.196714 -85.506058
118500000000 -19.000563 -83.71711 -25.081497 70.006424 -25.062128 -145.42636 -15.218127 -94.23629
118600000000 -19.07621 -91.053658 -25.001581 59.975235 -25.086908 -155.51189 -15.241617 -104.2043
118700000000 -19.158384 -98.008698 -24.99568 50.043045 -25.07358 -164.97139 -15.291392 -113.35066
118800000000 -19.246798 -105.79801 -25.009523 40.827183 -25.047523 -174.44939 -15.265359 -121.82457
118900000000 -19.403217 -113.00719 -24.980288 30.547516 -25.093693 176.91786 -15.2763 -131.23605
119000000000 -19.522577 -120.33165 -25.013655 20.835022 -25.084965 167.45305 -15.157166 -140.52806
119100000000 -19.645071 -127.51286 -25.045595 11.900141 -25.161728 158.43802 -15.142277 -148.44287
119200000000 -19.677765 -135.61139 -25.012115 3.1643884 -25.158394 148.52556 -15.046876 -157.54926
119300000000 -19.750134 -143.4409 -25.011482 -5.606626 -25.1444 137.70647 -14.883438 -166.76987
119400000000 -19.806192 -151.27126 -25.013874 -14.347613 -25.156384 128.36729 -14.874331 -174.37833
119500000000 -19.861776 -158.59386 -25.032047 -24.415289 -25.176075 119.46106 -14.690392 176.65694
119600000000 -19.971365 -166.15359 -25.012093 -34.510349 -25.130299 110.19897 -14.553101 168.49339
119700000000 -20.074654 -174.11159 -25.078136 -44.592976 -25.07205 101.45979 -14.459515 160.37083
119800000000 -20.131317 177.94827 -25.034431 -54.496998 -25.137602 92.914749 -14.327405 152.48741
119900000000 -20.184862 170.08852 -25.071594 -63.439434 -25.079027 83.100136 -14.268193 144.81633
120000000000 -20.248587 162.35124 -24.988876 -71.965515 -25.041115 72.813324 -14.084825 136.89139
120100000000 -20.337835 154.6256 -24.97789 -80.258064 -25.050097 62.682362 -14.108365 129.87996
120200000000 -20.441158 146.59836 -25.048372 -88.58828 -25.062353 52.504814 -14.024828 122.26939
120300000000 -20.481758 138.39648 -24.951139 -98.025406 -25.03833 43.314419 -13.880092 114.77286
120400000000 -20.511972 130.33028 -24.968809 -107.75804 -24.96748 34.536106 -13.964386 108.06037
120500000000 -20.533178 122.58664 -24.924171 -118.11125 -25.055647 26.749683 -13.917728 100.76299
120600000000 -20.532471 114.64541 -24.976124 -128.24635 -25.001793 17.914667 -13.866704 93.551254
120700000000 -20.453381 106.42206 -24.933882 -137.29121 -24.88525 8.1519251 -13.941875 86.755119
120800000000 -20.432888 98.485023 -24.917645 -146.05791 -25.002266 -1.0451131 -13.939554 79.609428
120900000000 -20.418013 90.894951 -24.841 -154.37965 -24.93395 -11.633506 -14.010989 72.999023
121000000000 -20.369486 83.455368 -24.924122 -162.38606 -24.979843 -21.492214 -14.113879 66.226204
121100000000 -20.241278 76.062225 -24.829777 -171.64406 -24.994614 -30.515213 -14.144451 59.294777
121200000000 -20.149931 68.776054 -24.775478 178.59958 -24.885986 -39.793114 -14.295995 52.227806
121300000000 -20.174574 61.798412 -24.890511 169.13062 -24.972927 -47.772503 -14.398048 45.433952
121400000000 -20.199793 54.832748 -24.787571 158.49719 -24.943769 -56.421066 -14.512209 38.221546
121500000000 -20.244486 48.171768 -24.828218 149.40097 -24.78298 -65.531654 -14.73091 31.552296
121600000000 -20.257229 41.268589 -24.884275 140.52968 -24.913481 -74.316322 -14.899694 24.481937
121700000000 -20.24029 34.59053 -24.816204 131.36961 -24.832747 -83.845535 -15.135577 16.974762
121800000000 -20.326969 27.467937 -24.902163 122.96745 -24.760015 -93.676178 -15.307096 9.3663206
121900000000 -20.424892 19.498121 -24.939251 114.71206 -24.815607 -104.02247 -15.432549 1.6517963
122000000000 -20.447142 11.311362 -24.882515 105.3615 -24.751314 -114.55735 -15.864774 -5.4802718
122100000000 -20.354795 3.3728025 -24.924803 95.766342 -24.75672 -123.30276 -16.049868 -13.423995
122200000000 -20.386618 -2.2693775 -24.925846 86.192383 -24.681517 -131.1521 -16.238808 -21.705477
122300000000 -20.37639 -8.0806236 -24.850639 76.469254 -24.687588 -139.29172 -16.545614 -29.407145
122400000000 -20.346735 -16.750267 -24.777945 67.364265 -24.816998 -149.46803 -16.828094 -37.251591
122500000000 -20.393559 -23.796947 -24.770864 58.289646 -24.747223 -159.59683 -17.01351 -46.434742
122600000000 -20.46158 -30.297199 -24.801931 50.154987 -24.7591 -169.23544 -17.241753 -55.177719
122700000000 -20.605459 -36.487415 -24.754675 41.085514 -24.813139 -178.39542 -17.54269 -63.972248
122800000000 -20.832731 -43.75108 -24.803719 31.383408 -24.762995 172.33806 -17.593685 -73.64547
122900000000 -20.998688 -49.698143 -24.789808 23.546358 -24.746309 163.09357 -17.799088 -83.013924
123000000000 -21.320477 -57.186211 -24.713442 13.867832 -24.779375 153.87184 -17.890564 -92.725136
123100000000 -21.537123 -64.362915 -24.727625 5.1621366 -24.771357 145.19374 -17.941301 -102.45919
123200000000 -21.740166 -71.764732 -24.723661 -3.9243522 -24.712914 135.89819 -17.935764 -112.36051
123300000000 -21.948843 -79.734962 -24.689968 -13.226792 -24.722435 126.7839 -17.910131 -121.67076
123400000000 -22.158848 -87.473038 -24.716698 -22.034735 -24.769979 117.84921 -17.883867 -131.29776
123500000000 -22.346226 -95.649017 -24.678459 -31.149635 -24.765457 108.70628 -17.706482 -140.6676
123600000000 -22.566423 -103.59681 -24.704859 -39.729279 -24.732542 99.120903 -17.592768 -149.68982
123700000000 -22.768503 -111.39014 -24.689777 -48.303696 -24.796713 89.99807 -17.394062 -158.68529
123800000000 -22.924669 -119.13941 -24.655993 -57.401722 -24.758457 80.493599 -17.160355 -167.30925
123900000000 -23.16156 -126.93681 -24.689758 -65.986694 -24.752871 71.16169 -17.004482 -175.72144
124000000000 -23.389177 -135.19247 -24.737665 -74.474503 -24.766788 62.367313 -16.73782 176.08052
124100000000 -23.676214 -143.95459 -24.587322 -84.457329 -24.741619 53.767693 -16.577635 168.5573
124200000000 -23.988859 -153.53024 -24.635567 -93.252213 -24.683655 44.898872 -16.290234 160.31552
124300000000 -24.214127 -162.98245 -24.711561 -101.85998 -24.711416 36.08662 -16.078489 153.18637
124400000000 -24.394167 -172.89124 -24.525419 -111.28755 -24.719746 26.587753 -15.973637 146.28996
124500000000 -24.447674 176.67276 -24.561939 -119.3978 -24.657406 16.785082 -15.688691 138.68031
124600000000 -24.48329 166.25499 -24.629313 -127.09895 -24.736221 6.9796739 -15.494275 131.89479
124700000000 -24.382372 156.12492 -24.577049 -135.94264 -24.683334 -2.4380159 -15.413268 125.84251
124800000000 -24.214001 146.37793 -24.545784 -144.99318 -24.683971 -11.079198 -15.174561 118.60308
124900000000 -24.091291 136.67345 -24.524334 -154.95299 -24.70693 -19.224207 -15.118478 112.47183
125000000000 -23.878574 127.36348 -24.58357 -164.36902 -24.656841 -27.361458 -14.998831 106.36885
125100000000 -23.629929 118.36212 -24.510235 -174.00398 -24.658524 -36.097931 -14.841425 99.743111
125200000000 -23.423899 109.6219 -24.49811 177.16716 -24.655499 -45.541279 -14.823704 93.650948
125300000000 -23.170874 100.83929 -24.555744 170.07378 -24.649532 -55.375 -14.782446 87.888802
125400000000 -22.96715 92.233566 -24.586826 162.41591 -24.583853 -65.879486 -14.727704 81.509644
125500000000 -22.66774 83.599113 -24.527731 153.79385 -24.670898 -75.511177 -14.753604 75.917351
125600000000 -22.401346 75.430428 -24.566813 145.30835 -24.644922 -84.444618 -14.727685 69.649055
125700000000 -22.115458 67.384087 -24.521742 135.37486 -24.58074 -92.863457 -14.732038 63.222439
125800000000 -21.796339 59.871193 -24.524889 125.27929 -24.64864 -100.28997 -14.875114 58.13073
125900000000 -21.435368 52.477093 -24.528803 115.90655 -24.680897 -108.31068 -14.900345 51.886623
126000000000 -21.206392 44.860954 -24.595663 106.73907 -24.607353 -117.77816 -14.899425 45.531254
126100000000 -20.902788 37.989231 -24.578762 98.759712 -24.641714 -127.55436 -15.142625 39.992439
126200000000 -20.626862 31.045675 -24.532457 90.395126 -24.643911 -137.64999 -15.25041 33.8591
126300000000 -20.461512 25.034657 -24.538721 82.700066 -24.620916 -147.45807 -15.383346 27.70269
126400000000 -20.195349 18.316584 -24.581919 74.317696 -24.603474 -156.76271 -15.558169 21.668022
126500000000 -19.98077 12.113714 -24.539076 65.218369 -24.610514 -165.08696 -15.771805 15.434563
126600000000 -19.908838 5.275878 -24.532907 55.792324 -24.637833 -173.88127 -16.072025 9.1066189
126700000000 -19.749407 -1.0209491 -24.568607 46.372276 -24.683434 177.53653 -16.264091 2.6243875
126800000000 -19.622269 -7.2323971 -24.596264 37.114403 -24.649462 169.40965 -16.489899 -3.8634603
126900000000 -19.45722 -12.910872 -24.55909 28.059917 -24.647577 160.75558 -16.880217 -10.595051
127000000000 -19.365051 -18.851389 -24.67938 19.575005 -24.726969 151.70952 -17.179468 -17.363426
127100000000 -19.285109 -24.7353 -24.636335 11.393814 -24.68297 142.38226 -17.516214 -24.458179
127200000000 -19.248413 -30.542181 -24.597982 3.1604044 -24.69828 133.34734 -17.880049 -31.534256
127300000000 -19.189093 -36.320736 -24.64978 -5.5354452 -24.7551 124.29346 -18.286654 -38.938969
127400000000 -19.200348 -41.90099 -24.670488 -14.072143 -24.74185 115.50224 -18.795198 -46.19352
127500000000 -19.109606 -47.242008 -24.741108 -22.324965 -24.758596 106.30957 -19.08684 -54.392956
127600000000 -19.145445 -52.729225 -24.695871 -31.060286 -24.762478 97.617088 -19.480833 -62.65733
127700000000 -19.123579 -58.560856 -24.739229 -39.738579 -24.775499 89.268463 -19.986645 -71.065857
127800000000 -19.262674 -64.561386 -24.75131 -48.684048 -24.85829 80.964912 -20.213282 -80.226601
127900000000 -19.336241 -70.573235 -24.784868 -58.118488 -24.806751 72.806908 -20.65679 -90.365723
128000000000 -19.397776 -76.295113 -24.79751 -67.138046 -24.845341 64.266121 -21.064125 -100.55499
128100000000 -19.443754 -82.076225 -24.811678 -75.504753 -24.808569 55.543564 -21.303371 -110.29526
128200000000 -19.567127 -88.036354 -24.786053 -83.656082 -24.796871 46.352333 -21.552588 -121.00315
128300000000 -19.652632 -93.523529 -24.809454 -91.64418 -24.819426 37.026676 -21.788374 -131.78926
128400000000 -19.794817 -99.496773 -24.774965 -99.412033 -24.791765 27.87949 -21.868135 -142.26015
128500000000 -19.915308 -105.52158 -24.785454 -107.88514 -24.806686 18.777914 -21.863005 -153.0708
128600000000 -20.093485 -111.03503 -24.752266 -116.79848 -24.784739 10.574754 -21.779774 -163.49197
128700000000 -20.249561 -116.86428 -24.743763 -125.82973 -24.774418 2.4131036 -21.647884 -173.63165
128800000000 -20.487415 -123.00324 -24.863167 -135.11731 -24.804865 -6.124908 -21.443293 176.40759
128900000000 -20.744453 -129.2733 -24.726139 -143.7505 -24.821667 -14.4615 -21.220785 167.19844
129000000000 -20.97047 -135.50021 -24.794016 -152.34062 -24.846691 -23.219654 -21.013294 158.11217
129100000000 -21.296368 -142.35924 -24.848909 -160.56282 -24.937696 -32.766861 -20.632809 149.27057
129200000000 -21.541765 -149.01999 -24.776117 -168.45192 -24.912201 -41.760387 -20.314386 141.22267
129300000000 -21.846224 -156.99944 -24.875523 -177.12679 -24.882696 -50.789768 -20.126127 133.05812
129400000000 -22.146172 -164.13364 -24.833883 174.5681 -24.924173 -59.729412 -19.878105 125.49096
129500000000 -22.410765 -171.32959 -24.934311 165.87479 -24.924671 -68.330956 -19.591497 118.25603
129600000000 -22.634886 -178.99866 -24.980824 157.05986 -24.909443 -76.775726 -19.302708 111.17722
129700000000 -22.904503 173.39046 -24.957747 149.44513 -24.960144 -85.863945 -19.079451 104.33853
129800000000 -23.153955 165.63676 -24.96866 140.54822 -25.036425 -94.212494 -18.821949 97.475159
129900000000 -23.459745 156.67921 -25.065723 131.12199 -25.046955 -102.85442 -18.638147 90.530258
130000000000 -23.721588 148.71837 -25.074427 123.53942 -25.096273 -111.48106 -18.524553 84.346451
130100000000 -23.973421 140.34398 -25.053383 115.28364 -25.198065 -120.3522 -18.357334 77.865143
130200000000 -24.162878 131.56915 -25.087852 106.6442 -25.168972 -128.13016 -18.154902 71.848541
